# vsim -cvgperinstance -vopt -voptargs="+acc" -coverage -sva -c -do " log -r /* ;coverage save -onexit mem_cov3;run -all; exit" -wlf wave_file3.wlf -l test3.log -sv_seed random work.top "+UVM_TESTNAME=unspec_test" 
# Start time: 12:34:52 on Dec 16,2025
# ** Note: (vsim-8009) Loading existing optimized design _opt
# //  Questa Sim
# //  Version 2022.1 linux Jan 29 2022
# //
# //  Copyright 1991-2022 Mentor Graphics Corporation
# //  All Rights Reserved.
# //
# //  QuestaSim and its associated documentation contain trade
# //  secrets and commercial or financial information that are the property of
# //  Mentor Graphics Corporation and are privileged, confidential,
# //  and exempt from disclosure under the Freedom of Information Act,
# //  5 U.S.C. Section 552. Furthermore, this information
# //  is prohibited from disclosure under the Trade Secrets Act,
# //  18 U.S.C. Section 1905.
# //
# Loading sv_std.std
# Loading work.bridge_if(fast)
# Loading mtiUvm.uvm_pkg(fast)
# Loading work.bridge_pkg(fast)
# Loading mtiUvm.questa_uvm_pkg(fast)
# Loading work.top(fast)
# Loading work.bridge_if(fast__2)
# Loading work.rtl_top(fast)
# Loading work.ahb(fast)
# Loading work.apb_controller(fast)
# Loading work.apb(fast)
# Loading /home/cad/eda/Questa-sim/questasim/uvm-1.1d/linux/uvm_dpi.so
# ** Warning: (vsim-8634) Code was not compiled with coverage options.
# Sv_Seed = 1639457961
#  log -r /* 
# coverage save -onexit mem_cov3
# run -all
# ----------------------------------------------------------------
# UVM-1.1d
# (C) 2007-2013 Mentor Graphics Corporation
# (C) 2007-2013 Cadence Design Systems, Inc.
# (C) 2006-2013 Synopsys, Inc.
# (C) 2011-2013 Cypress Semiconductor Corp.
# ----------------------------------------------------------------
# 
#   ***********       IMPORTANT RELEASE NOTES         ************
# 
#   You are using a version of the UVM library that has been compiled
#   with `UVM_NO_DEPRECATED undefined.
#   See http://www.eda.org/svdb/view.php?id=3313 for more details.
# 
#   You are using a version of the UVM library that has been compiled
#   with `UVM_OBJECT_MUST_HAVE_CONSTRUCTOR undefined.
#   See http://www.eda.org/svdb/view.php?id=3770 for more details.
# 
#       (Specify +UVM_NO_RELNOTES to turn off this notice)
# 
# UVM_INFO verilog_src/questa_uvm_pkg-1.2/src/questa_uvm_pkg.sv(277) @ 0: reporter [Questa UVM] QUESTA_UVM-1.2.3
# UVM_INFO verilog_src/questa_uvm_pkg-1.2/src/questa_uvm_pkg.sv(278) @ 0: reporter [Questa UVM]  questa_uvm::init(+struct)
# UVM_INFO @ 0: reporter [RNTST] Running test unspec_test...
# UVM_INFO @ 0: reporter [UVMTOP] UVM testbench topology:
# --------------------------------------------------------------------
# Name                         Type                        Size  Value
# --------------------------------------------------------------------
# uvm_test_top                 unspec_test                 -     @474 
#   env_h                      env                         -     @490 
#     ahb_agt_toph             ahb_agent_top               -     @508 
#       ahb_agnth              ahb_agent                   -     @725 
#         ahb_drvh             ahb_driver                  -     @854 
#           rsp_port           uvm_analysis_port           -     @869 
#           seq_item_port      uvm_seq_item_pull_port      -     @861 
#         ahb_monh             ahb_monitor                 -     @737 
#           ahb_port           uvm_analysis_port           -     @880 
#         ahb_seqrh            ahb_sequencer               -     @745 
#           rsp_export         uvm_analysis_export         -     @752 
#           seq_item_export    uvm_seq_item_pull_imp       -     @846 
#           arbitration_queue  array                       0     -    
#           lock_queue         array                       0     -    
#           num_last_reqs      integral                    32    'd1  
#           num_last_rsps      integral                    32    'd1  
#     apb_agt_toph             apb_agent_top               -     @501 
#       apb_agnth              apb_agent                   -     @893 
#         apb_drvh             apb_driver                  -     @1023
#           rsp_port           uvm_analysis_port           -     @1038
#           seq_item_port      uvm_seq_item_pull_port      -     @1030
#         apb_monh             apb_monitor                 -     @906 
#           apb_port           uvm_analysis_port           -     @1048
#         apb_seqrh            apb_sequencer               -     @914 
#           rsp_export         uvm_analysis_export         -     @921 
#           seq_item_export    uvm_seq_item_pull_imp       -     @1015
#           arbitration_queue  array                       0     -    
#           lock_queue         array                       0     -    
#           num_last_reqs      integral                    32    'd1  
#           num_last_rsps      integral                    32    'd1  
#     scoreboard_h             scoreboard                  -     @515 
#       ahb_fifo               uvm_tlm_analysis_fifo #(T)  -     @522 
#         analysis_export      uvm_analysis_imp            -     @561 
#         get_ap               uvm_analysis_port           -     @553 
#         get_peek_export      uvm_get_peek_imp            -     @537 
#         put_ap               uvm_analysis_port           -     @545 
#         put_export           uvm_put_imp                 -     @529 
#       apb_fifo               uvm_tlm_analysis_fifo #(T)  -     @569 
#         analysis_export      uvm_analysis_imp            -     @608 
#         get_ap               uvm_analysis_port           -     @600 
#         get_peek_export      uvm_get_peek_imp            -     @584 
#         put_ap               uvm_analysis_port           -     @592 
#         put_export           uvm_put_imp                 -     @576 
#     vseqrh                   virtual_sequencer           -     @616 
#       rsp_export             uvm_analysis_export         -     @623 
#       seq_item_export        uvm_seq_item_pull_imp       -     @717 
#       arbitration_queue      array                       0     -    
#       lock_queue             array                       0     -    
#       num_last_reqs          integral                    32    'd1  
#       num_last_rsps          integral                    32    'd1  
# --------------------------------------------------------------------
# 
# inside DEFAULT state                   5
# driving the Data
# driving the Data
# Width = 32, size 8 bits
# UVM_INFO ../tb/scoreboard.sv(90) @ 35: uvm_test_top.env_h.scoreboard_h [SCOREBOARD AHB] src_xtn data getting from tlm fifo 
#  -------------------------------------
# Name      Type       Size  Value     
# -------------------------------------
# xtn       ahb_trans  -     @1078     
#   Haddr   integral   32    'h8c000376
#   Hwdata  integral   32    'h8550c0f3
#   Hwrite  integral   1     1         
#   Htrans  integral   2     2         
#   Hsize   integral   2     'd1       
#   Hburst  integral   3     'h1       
#   Hrdata  integral   32    'h0       
# -------------------------------------
# 
# driving the Data
# Width = 32, size 16 bits
# driving the Data
# UVM_INFO ../tb/scoreboard.sv(99) @ 65: uvm_test_top.env_h.scoreboard_h [SCOREBOARD APB] apb_xtn data getting from tlm fifo 
#  --------------------------------------
# Name       Type       Size  Value     
# --------------------------------------
# apb_xtnh   apb_trans  -     @1164     
#   Prdata   integral   32    'h0       
#   Pwdata   integral   32    'h8550    
#   Paddr    integral   32    'h8c000376
#   Pselx    integral   4     8         
#   Pwrite   integral   1     1         
#   Penable  integral   1     1         
# --------------------------------------
# 
# ADDRESS COMPARED SUCESSFULLY
# Haddr = 2348811126, Paddr = 2348811126
# DATA COMPARED SUCESSFULLY
# Hwdata = 34128, Pwdata = 34128
# UVM_INFO ../tb/scoreboard.sv(90) @ 65: uvm_test_top.env_h.scoreboard_h [SCOREBOARD AHB] src_xtn data getting from tlm fifo 
#  -------------------------------------
# Name      Type       Size  Value     
# -------------------------------------
# xtn       ahb_trans  -     @1169     
#   Haddr   integral   32    'h8c000378
#   Hwdata  integral   32    'he8df3598
#   Hwrite  integral   1     1         
#   Htrans  integral   2     3         
#   Hsize   integral   2     'd1       
#   Hburst  integral   3     'h1       
#   Hrdata  integral   32    'h0       
# -------------------------------------
# 
# Width = 32, size 16 bits
# driving the Data
# UVM_INFO ../tb/scoreboard.sv(99) @ 85: uvm_test_top.env_h.scoreboard_h [SCOREBOARD APB] apb_xtn data getting from tlm fifo 
#  --------------------------------------
# Name       Type       Size  Value     
# --------------------------------------
# apb_xtnh   apb_trans  -     @1181     
#   Prdata   integral   32    'h0       
#   Pwdata   integral   32    'h3598    
#   Paddr    integral   32    'h8c000378
#   Pselx    integral   4     8         
#   Pwrite   integral   1     1         
#   Penable  integral   1     1         
# --------------------------------------
# 
# ADDRESS COMPARED SUCESSFULLY
# Haddr = 2348811128, Paddr = 2348811128
# DATA COMPARED SUCESSFULLY
# Hwdata = 13720, Pwdata = 13720
# UVM_INFO ../tb/scoreboard.sv(90) @ 85: uvm_test_top.env_h.scoreboard_h [SCOREBOARD AHB] src_xtn data getting from tlm fifo 
#  -------------------------------------
# Name      Type       Size  Value     
# -------------------------------------
# xtn       ahb_trans  -     @1173     
#   Haddr   integral   32    'h8c00037a
#   Hwdata  integral   32    'h7c30bdff
#   Hwrite  integral   1     1         
#   Htrans  integral   2     3         
#   Hsize   integral   2     'd1       
#   Hburst  integral   3     'h1       
#   Hrdata  integral   32    'h0       
# -------------------------------------
# 
# Width = 32, size 16 bits
# driving the Data
# UVM_INFO ../tb/scoreboard.sv(99) @ 105: uvm_test_top.env_h.scoreboard_h [SCOREBOARD APB] apb_xtn data getting from tlm fifo 
#  --------------------------------------
# Name       Type       Size  Value     
# --------------------------------------
# apb_xtnh   apb_trans  -     @1189     
#   Prdata   integral   32    'h0       
#   Pwdata   integral   32    'h7c30    
#   Paddr    integral   32    'h8c00037a
#   Pselx    integral   4     8         
#   Pwrite   integral   1     1         
#   Penable  integral   1     1         
# --------------------------------------
# 
# ADDRESS COMPARED SUCESSFULLY
# Haddr = 2348811130, Paddr = 2348811130
# DATA COMPARED SUCESSFULLY
# Hwdata = 31792, Pwdata = 31792
# UVM_INFO ../tb/scoreboard.sv(90) @ 105: uvm_test_top.env_h.scoreboard_h [SCOREBOARD AHB] src_xtn data getting from tlm fifo 
#  -------------------------------------
# Name      Type       Size  Value     
# -------------------------------------
# xtn       ahb_trans  -     @1177     
#   Haddr   integral   32    'h8c00037c
#   Hwdata  integral   32    'h3be19b23
#   Hwrite  integral   1     1         
#   Htrans  integral   2     3         
#   Hsize   integral   2     'd1       
#   Hburst  integral   3     'h1       
#   Hrdata  integral   32    'h0       
# -------------------------------------
# 
# Width = 32, size 16 bits
# driving the Data
# UVM_INFO ../tb/scoreboard.sv(99) @ 125: uvm_test_top.env_h.scoreboard_h [SCOREBOARD APB] apb_xtn data getting from tlm fifo 
#  --------------------------------------
# Name       Type       Size  Value     
# --------------------------------------
# apb_xtnh   apb_trans  -     @1197     
#   Prdata   integral   32    'h0       
#   Pwdata   integral   32    'h9b23    
#   Paddr    integral   32    'h8c00037c
#   Pselx    integral   4     8         
#   Pwrite   integral   1     1         
#   Penable  integral   1     1         
# --------------------------------------
# 
# ADDRESS COMPARED SUCESSFULLY
# Haddr = 2348811132, Paddr = 2348811132
# DATA COMPARED SUCESSFULLY
# Hwdata = 39715, Pwdata = 39715
# UVM_INFO ../tb/scoreboard.sv(90) @ 125: uvm_test_top.env_h.scoreboard_h [SCOREBOARD AHB] src_xtn data getting from tlm fifo 
#  -------------------------------------
# Name      Type       Size  Value     
# -------------------------------------
# xtn       ahb_trans  -     @1185     
#   Haddr   integral   32    'h8c00037e
#   Hwdata  integral   32    'hf56b274 
#   Hwrite  integral   1     1         
#   Htrans  integral   2     3         
#   Hsize   integral   2     'd1       
#   Hburst  integral   3     'h1       
#   Hrdata  integral   32    'h0       
# -------------------------------------
# 
# Width = 32, size 16 bits
# driving the Data
# UVM_INFO ../tb/scoreboard.sv(99) @ 145: uvm_test_top.env_h.scoreboard_h [SCOREBOARD APB] apb_xtn data getting from tlm fifo 
#  --------------------------------------
# Name       Type       Size  Value     
# --------------------------------------
# apb_xtnh   apb_trans  -     @1205     
#   Prdata   integral   32    'h0       
#   Pwdata   integral   32    'hf56     
#   Paddr    integral   32    'h8c00037e
#   Pselx    integral   4     8         
#   Pwrite   integral   1     1         
#   Penable  integral   1     1         
# --------------------------------------
# 
# ADDRESS COMPARED SUCESSFULLY
# Haddr = 2348811134, Paddr = 2348811134
# DATA COMPARED SUCESSFULLY
# Hwdata = 3926, Pwdata = 3926
# UVM_INFO ../tb/scoreboard.sv(90) @ 145: uvm_test_top.env_h.scoreboard_h [SCOREBOARD AHB] src_xtn data getting from tlm fifo 
#  -------------------------------------
# Name      Type       Size  Value     
# -------------------------------------
# xtn       ahb_trans  -     @1193     
#   Haddr   integral   32    'h8c000380
#   Hwdata  integral   32    'he2703cac
#   Hwrite  integral   1     1         
#   Htrans  integral   2     3         
#   Hsize   integral   2     'd1       
#   Hburst  integral   3     'h1       
#   Hrdata  integral   32    'h0       
# -------------------------------------
# 
# Width = 32, size 16 bits
# driving the Data
# UVM_INFO ../tb/scoreboard.sv(99) @ 165: uvm_test_top.env_h.scoreboard_h [SCOREBOARD APB] apb_xtn data getting from tlm fifo 
#  --------------------------------------
# Name       Type       Size  Value     
# --------------------------------------
# apb_xtnh   apb_trans  -     @1213     
#   Prdata   integral   32    'h0       
#   Pwdata   integral   32    'h3cac    
#   Paddr    integral   32    'h8c000380
#   Pselx    integral   4     8         
#   Pwrite   integral   1     1         
#   Penable  integral   1     1         
# --------------------------------------
# 
# ADDRESS COMPARED SUCESSFULLY
# Haddr = 2348811136, Paddr = 2348811136
# DATA COMPARED SUCESSFULLY
# Hwdata = 15532, Pwdata = 15532
# UVM_INFO ../tb/scoreboard.sv(90) @ 165: uvm_test_top.env_h.scoreboard_h [SCOREBOARD AHB] src_xtn data getting from tlm fifo 
#  -------------------------------------
# Name      Type       Size  Value     
# -------------------------------------
# xtn       ahb_trans  -     @1201     
#   Haddr   integral   32    'h8c000382
#   Hwdata  integral   32    'h582adcca
#   Hwrite  integral   1     1         
#   Htrans  integral   2     3         
#   Hsize   integral   2     'd1       
#   Hburst  integral   3     'h1       
#   Hrdata  integral   32    'h0       
# -------------------------------------
# 
# Width = 32, size 16 bits
# driving the Data
# UVM_INFO ../tb/scoreboard.sv(99) @ 185: uvm_test_top.env_h.scoreboard_h [SCOREBOARD APB] apb_xtn data getting from tlm fifo 
#  --------------------------------------
# Name       Type       Size  Value     
# --------------------------------------
# apb_xtnh   apb_trans  -     @1221     
#   Prdata   integral   32    'h0       
#   Pwdata   integral   32    'h582a    
#   Paddr    integral   32    'h8c000382
#   Pselx    integral   4     8         
#   Pwrite   integral   1     1         
#   Penable  integral   1     1         
# --------------------------------------
# 
# ADDRESS COMPARED SUCESSFULLY
# Haddr = 2348811138, Paddr = 2348811138
# DATA COMPARED SUCESSFULLY
# Hwdata = 22570, Pwdata = 22570
# UVM_INFO ../tb/scoreboard.sv(90) @ 185: uvm_test_top.env_h.scoreboard_h [SCOREBOARD AHB] src_xtn data getting from tlm fifo 
#  -------------------------------------
# Name      Type       Size  Value     
# -------------------------------------
# xtn       ahb_trans  -     @1209     
#   Haddr   integral   32    'h8c000384
#   Hwdata  integral   32    'h4a564585
#   Hwrite  integral   1     1         
#   Htrans  integral   2     3         
#   Hsize   integral   2     'd1       
#   Hburst  integral   3     'h1       
#   Hrdata  integral   32    'h0       
# -------------------------------------
# 
# Width = 32, size 16 bits
# driving the Data
# UVM_INFO ../tb/scoreboard.sv(99) @ 205: uvm_test_top.env_h.scoreboard_h [SCOREBOARD APB] apb_xtn data getting from tlm fifo 
#  --------------------------------------
# Name       Type       Size  Value     
# --------------------------------------
# apb_xtnh   apb_trans  -     @1229     
#   Prdata   integral   32    'h0       
#   Pwdata   integral   32    'h4585    
#   Paddr    integral   32    'h8c000384
#   Pselx    integral   4     8         
#   Pwrite   integral   1     1         
#   Penable  integral   1     1         
# --------------------------------------
# 
# ADDRESS COMPARED SUCESSFULLY
# Haddr = 2348811140, Paddr = 2348811140
# DATA COMPARED SUCESSFULLY
# Hwdata = 17797, Pwdata = 17797
# UVM_INFO ../tb/scoreboard.sv(90) @ 205: uvm_test_top.env_h.scoreboard_h [SCOREBOARD AHB] src_xtn data getting from tlm fifo 
#  -------------------------------------
# Name      Type       Size  Value     
# -------------------------------------
# xtn       ahb_trans  -     @1217     
#   Haddr   integral   32    'h8c000386
#   Hwdata  integral   32    'h241445ac
#   Hwrite  integral   1     1         
#   Htrans  integral   2     3         
#   Hsize   integral   2     'd1       
#   Hburst  integral   3     'h1       
#   Hrdata  integral   32    'h0       
# -------------------------------------
# 
# Width = 32, size 16 bits
# driving the Data
# UVM_INFO ../tb/scoreboard.sv(99) @ 225: uvm_test_top.env_h.scoreboard_h [SCOREBOARD APB] apb_xtn data getting from tlm fifo 
#  --------------------------------------
# Name       Type       Size  Value     
# --------------------------------------
# apb_xtnh   apb_trans  -     @1237     
#   Prdata   integral   32    'h0       
#   Pwdata   integral   32    'h2414    
#   Paddr    integral   32    'h8c000386
#   Pselx    integral   4     8         
#   Pwrite   integral   1     1         
#   Penable  integral   1     1         
# --------------------------------------
# 
# ADDRESS COMPARED SUCESSFULLY
# Haddr = 2348811142, Paddr = 2348811142
# DATA COMPARED SUCESSFULLY
# Hwdata = 9236, Pwdata = 9236
# UVM_INFO ../tb/scoreboard.sv(90) @ 225: uvm_test_top.env_h.scoreboard_h [SCOREBOARD AHB] src_xtn data getting from tlm fifo 
#  -------------------------------------
# Name      Type       Size  Value     
# -------------------------------------
# xtn       ahb_trans  -     @1225     
#   Haddr   integral   32    'h8c000388
#   Hwdata  integral   32    'hd9f71b84
#   Hwrite  integral   1     1         
#   Htrans  integral   2     3         
#   Hsize   integral   2     'd1       
#   Hburst  integral   3     'h1       
#   Hrdata  integral   32    'h0       
# -------------------------------------
# 
# Width = 32, size 16 bits
# driving the Data
# UVM_INFO ../tb/scoreboard.sv(99) @ 245: uvm_test_top.env_h.scoreboard_h [SCOREBOARD APB] apb_xtn data getting from tlm fifo 
#  --------------------------------------
# Name       Type       Size  Value     
# --------------------------------------
# apb_xtnh   apb_trans  -     @1245     
#   Prdata   integral   32    'h0       
#   Pwdata   integral   32    'h1b84    
#   Paddr    integral   32    'h8c000388
#   Pselx    integral   4     8         
#   Pwrite   integral   1     1         
#   Penable  integral   1     1         
# --------------------------------------
# 
# ADDRESS COMPARED SUCESSFULLY
# Haddr = 2348811144, Paddr = 2348811144
# DATA COMPARED SUCESSFULLY
# Hwdata = 7044, Pwdata = 7044
# UVM_INFO ../tb/scoreboard.sv(90) @ 245: uvm_test_top.env_h.scoreboard_h [SCOREBOARD AHB] src_xtn data getting from tlm fifo 
#  -------------------------------------
# Name      Type       Size  Value     
# -------------------------------------
# xtn       ahb_trans  -     @1233     
#   Haddr   integral   32    'h8c00038a
#   Hwdata  integral   32    'hf18fd7d2
#   Hwrite  integral   1     1         
#   Htrans  integral   2     3         
#   Hsize   integral   2     'd1       
#   Hburst  integral   3     'h1       
#   Hrdata  integral   32    'h0       
# -------------------------------------
# 
# Width = 32, size 16 bits
# driving the Data
# UVM_INFO ../tb/scoreboard.sv(99) @ 265: uvm_test_top.env_h.scoreboard_h [SCOREBOARD APB] apb_xtn data getting from tlm fifo 
#  --------------------------------------
# Name       Type       Size  Value     
# --------------------------------------
# apb_xtnh   apb_trans  -     @1253     
#   Prdata   integral   32    'h0       
#   Pwdata   integral   32    'hf18f    
#   Paddr    integral   32    'h8c00038a
#   Pselx    integral   4     8         
#   Pwrite   integral   1     1         
#   Penable  integral   1     1         
# --------------------------------------
# 
# ADDRESS COMPARED SUCESSFULLY
# Haddr = 2348811146, Paddr = 2348811146
# DATA COMPARED SUCESSFULLY
# Hwdata = 61839, Pwdata = 61839
# UVM_INFO ../tb/scoreboard.sv(90) @ 265: uvm_test_top.env_h.scoreboard_h [SCOREBOARD AHB] src_xtn data getting from tlm fifo 
#  -------------------------------------
# Name      Type       Size  Value     
# -------------------------------------
# xtn       ahb_trans  -     @1241     
#   Haddr   integral   32    'h8c00038c
#   Hwdata  integral   32    'hf8d8dfdc
#   Hwrite  integral   1     1         
#   Htrans  integral   2     3         
#   Hsize   integral   2     'd1       
#   Hburst  integral   3     'h1       
#   Hrdata  integral   32    'h0       
# -------------------------------------
# 
# Width = 32, size 16 bits
# driving the Data
# UVM_INFO ../tb/scoreboard.sv(99) @ 285: uvm_test_top.env_h.scoreboard_h [SCOREBOARD APB] apb_xtn data getting from tlm fifo 
#  --------------------------------------
# Name       Type       Size  Value     
# --------------------------------------
# apb_xtnh   apb_trans  -     @1261     
#   Prdata   integral   32    'h0       
#   Pwdata   integral   32    'hdfdc    
#   Paddr    integral   32    'h8c00038c
#   Pselx    integral   4     8         
#   Pwrite   integral   1     1         
#   Penable  integral   1     1         
# --------------------------------------
# 
# ADDRESS COMPARED SUCESSFULLY
# Haddr = 2348811148, Paddr = 2348811148
# DATA COMPARED SUCESSFULLY
# Hwdata = 57308, Pwdata = 57308
# UVM_INFO ../tb/scoreboard.sv(90) @ 285: uvm_test_top.env_h.scoreboard_h [SCOREBOARD AHB] src_xtn data getting from tlm fifo 
#  -------------------------------------
# Name      Type       Size  Value     
# -------------------------------------
# xtn       ahb_trans  -     @1249     
#   Haddr   integral   32    'h8c00038e
#   Hwdata  integral   32    'hbe45f2df
#   Hwrite  integral   1     1         
#   Htrans  integral   2     3         
#   Hsize   integral   2     'd1       
#   Hburst  integral   3     'h1       
#   Hrdata  integral   32    'h0       
# -------------------------------------
# 
# Width = 32, size 16 bits
# driving the Data
# UVM_INFO ../tb/scoreboard.sv(99) @ 305: uvm_test_top.env_h.scoreboard_h [SCOREBOARD APB] apb_xtn data getting from tlm fifo 
#  --------------------------------------
# Name       Type       Size  Value     
# --------------------------------------
# apb_xtnh   apb_trans  -     @1269     
#   Prdata   integral   32    'h0       
#   Pwdata   integral   32    'hbe45    
#   Paddr    integral   32    'h8c00038e
#   Pselx    integral   4     8         
#   Pwrite   integral   1     1         
#   Penable  integral   1     1         
# --------------------------------------
# 
# ADDRESS COMPARED SUCESSFULLY
# Haddr = 2348811150, Paddr = 2348811150
# DATA COMPARED SUCESSFULLY
# Hwdata = 48709, Pwdata = 48709
# UVM_INFO ../tb/scoreboard.sv(90) @ 305: uvm_test_top.env_h.scoreboard_h [SCOREBOARD AHB] src_xtn data getting from tlm fifo 
#  -------------------------------------
# Name      Type       Size  Value     
# -------------------------------------
# xtn       ahb_trans  -     @1257     
#   Haddr   integral   32    'h8c000390
#   Hwdata  integral   32    'h5ed7f802
#   Hwrite  integral   1     1         
#   Htrans  integral   2     3         
#   Hsize   integral   2     'd1       
#   Hburst  integral   3     'h1       
#   Hrdata  integral   32    'h0       
# -------------------------------------
# 
# Width = 32, size 16 bits
# driving the Data
# UVM_INFO ../tb/scoreboard.sv(99) @ 325: uvm_test_top.env_h.scoreboard_h [SCOREBOARD APB] apb_xtn data getting from tlm fifo 
#  --------------------------------------
# Name       Type       Size  Value     
# --------------------------------------
# apb_xtnh   apb_trans  -     @1277     
#   Prdata   integral   32    'h0       
#   Pwdata   integral   32    'hf802    
#   Paddr    integral   32    'h8c000390
#   Pselx    integral   4     8         
#   Pwrite   integral   1     1         
#   Penable  integral   1     1         
# --------------------------------------
# 
# ADDRESS COMPARED SUCESSFULLY
# Haddr = 2348811152, Paddr = 2348811152
# DATA COMPARED SUCESSFULLY
# Hwdata = 63490, Pwdata = 63490
# UVM_INFO ../tb/scoreboard.sv(90) @ 325: uvm_test_top.env_h.scoreboard_h [SCOREBOARD AHB] src_xtn data getting from tlm fifo 
#  -------------------------------------
# Name      Type       Size  Value     
# -------------------------------------
# xtn       ahb_trans  -     @1265     
#   Haddr   integral   32    'h8c000392
#   Hwdata  integral   32    'hffb5872 
#   Hwrite  integral   1     1         
#   Htrans  integral   2     3         
#   Hsize   integral   2     'd1       
#   Hburst  integral   3     'h1       
#   Hrdata  integral   32    'h0       
# -------------------------------------
# 
# Width = 32, size 16 bits
# driving the Data
# UVM_INFO ../tb/scoreboard.sv(99) @ 345: uvm_test_top.env_h.scoreboard_h [SCOREBOARD APB] apb_xtn data getting from tlm fifo 
#  --------------------------------------
# Name       Type       Size  Value     
# --------------------------------------
# apb_xtnh   apb_trans  -     @1285     
#   Prdata   integral   32    'h0       
#   Pwdata   integral   32    'hffb     
#   Paddr    integral   32    'h8c000392
#   Pselx    integral   4     8         
#   Pwrite   integral   1     1         
#   Penable  integral   1     1         
# --------------------------------------
# 
# ADDRESS COMPARED SUCESSFULLY
# Haddr = 2348811154, Paddr = 2348811154
# DATA COMPARED SUCESSFULLY
# Hwdata = 4091, Pwdata = 4091
# UVM_INFO ../tb/scoreboard.sv(90) @ 345: uvm_test_top.env_h.scoreboard_h [SCOREBOARD AHB] src_xtn data getting from tlm fifo 
#  -------------------------------------
# Name      Type       Size  Value     
# -------------------------------------
# xtn       ahb_trans  -     @1273     
#   Haddr   integral   32    'h8c000394
#   Hwdata  integral   32    'h630c6d97
#   Hwrite  integral   1     1         
#   Htrans  integral   2     3         
#   Hsize   integral   2     'd1       
#   Hburst  integral   3     'h1       
#   Hrdata  integral   32    'h0       
# -------------------------------------
# 
# Width = 32, size 16 bits
# driving the Data
# UVM_INFO ../tb/scoreboard.sv(99) @ 365: uvm_test_top.env_h.scoreboard_h [SCOREBOARD APB] apb_xtn data getting from tlm fifo 
#  --------------------------------------
# Name       Type       Size  Value     
# --------------------------------------
# apb_xtnh   apb_trans  -     @1293     
#   Prdata   integral   32    'h0       
#   Pwdata   integral   32    'h6d97    
#   Paddr    integral   32    'h8c000394
#   Pselx    integral   4     8         
#   Pwrite   integral   1     1         
#   Penable  integral   1     1         
# --------------------------------------
# 
# ADDRESS COMPARED SUCESSFULLY
# Haddr = 2348811156, Paddr = 2348811156
# DATA COMPARED SUCESSFULLY
# Hwdata = 28055, Pwdata = 28055
# UVM_INFO ../tb/scoreboard.sv(90) @ 365: uvm_test_top.env_h.scoreboard_h [SCOREBOARD AHB] src_xtn data getting from tlm fifo 
#  -------------------------------------
# Name      Type       Size  Value     
# -------------------------------------
# xtn       ahb_trans  -     @1281     
#   Haddr   integral   32    'h8c000396
#   Hwdata  integral   32    'hb2a49481
#   Hwrite  integral   1     1         
#   Htrans  integral   2     3         
#   Hsize   integral   2     'd1       
#   Hburst  integral   3     'h1       
#   Hrdata  integral   32    'h0       
# -------------------------------------
# 
# Width = 32, size 16 bits
# driving the Data
# UVM_INFO ../tb/scoreboard.sv(99) @ 385: uvm_test_top.env_h.scoreboard_h [SCOREBOARD APB] apb_xtn data getting from tlm fifo 
#  --------------------------------------
# Name       Type       Size  Value     
# --------------------------------------
# apb_xtnh   apb_trans  -     @1301     
#   Prdata   integral   32    'h0       
#   Pwdata   integral   32    'hb2a4    
#   Paddr    integral   32    'h8c000396
#   Pselx    integral   4     8         
#   Pwrite   integral   1     1         
#   Penable  integral   1     1         
# --------------------------------------
# 
# ADDRESS COMPARED SUCESSFULLY
# Haddr = 2348811158, Paddr = 2348811158
# DATA COMPARED SUCESSFULLY
# Hwdata = 45732, Pwdata = 45732
# UVM_INFO ../tb/scoreboard.sv(90) @ 385: uvm_test_top.env_h.scoreboard_h [SCOREBOARD AHB] src_xtn data getting from tlm fifo 
#  -------------------------------------
# Name      Type       Size  Value     
# -------------------------------------
# xtn       ahb_trans  -     @1289     
#   Haddr   integral   32    'h8c000398
#   Hwdata  integral   32    'he3fbed42
#   Hwrite  integral   1     1         
#   Htrans  integral   2     3         
#   Hsize   integral   2     'd1       
#   Hburst  integral   3     'h1       
#   Hrdata  integral   32    'h0       
# -------------------------------------
# 
# Width = 32, size 16 bits
# driving the Data
# UVM_INFO ../tb/scoreboard.sv(99) @ 405: uvm_test_top.env_h.scoreboard_h [SCOREBOARD APB] apb_xtn data getting from tlm fifo 
#  --------------------------------------
# Name       Type       Size  Value     
# --------------------------------------
# apb_xtnh   apb_trans  -     @1309     
#   Prdata   integral   32    'h0       
#   Pwdata   integral   32    'hed42    
#   Paddr    integral   32    'h8c000398
#   Pselx    integral   4     8         
#   Pwrite   integral   1     1         
#   Penable  integral   1     1         
# --------------------------------------
# 
# ADDRESS COMPARED SUCESSFULLY
# Haddr = 2348811160, Paddr = 2348811160
# DATA COMPARED SUCESSFULLY
# Hwdata = 60738, Pwdata = 60738
# UVM_INFO ../tb/scoreboard.sv(90) @ 405: uvm_test_top.env_h.scoreboard_h [SCOREBOARD AHB] src_xtn data getting from tlm fifo 
#  -------------------------------------
# Name      Type       Size  Value     
# -------------------------------------
# xtn       ahb_trans  -     @1297     
#   Haddr   integral   32    'h8c00039a
#   Hwdata  integral   32    'hd23cac1c
#   Hwrite  integral   1     1         
#   Htrans  integral   2     3         
#   Hsize   integral   2     'd1       
#   Hburst  integral   3     'h1       
#   Hrdata  integral   32    'h0       
# -------------------------------------
# 
# Width = 32, size 16 bits
# driving the Data
# UVM_INFO ../tb/scoreboard.sv(99) @ 425: uvm_test_top.env_h.scoreboard_h [SCOREBOARD APB] apb_xtn data getting from tlm fifo 
#  --------------------------------------
# Name       Type       Size  Value     
# --------------------------------------
# apb_xtnh   apb_trans  -     @1317     
#   Prdata   integral   32    'h0       
#   Pwdata   integral   32    'hd23c    
#   Paddr    integral   32    'h8c00039a
#   Pselx    integral   4     8         
#   Pwrite   integral   1     1         
#   Penable  integral   1     1         
# --------------------------------------
# 
# ADDRESS COMPARED SUCESSFULLY
# Haddr = 2348811162, Paddr = 2348811162
# DATA COMPARED SUCESSFULLY
# Hwdata = 53820, Pwdata = 53820
# UVM_INFO ../tb/scoreboard.sv(90) @ 425: uvm_test_top.env_h.scoreboard_h [SCOREBOARD AHB] src_xtn data getting from tlm fifo 
#  -------------------------------------
# Name      Type       Size  Value     
# -------------------------------------
# xtn       ahb_trans  -     @1305     
#   Haddr   integral   32    'h8c00039c
#   Hwdata  integral   32    'h26011b6c
#   Hwrite  integral   1     1         
#   Htrans  integral   2     3         
#   Hsize   integral   2     'd1       
#   Hburst  integral   3     'h1       
#   Hrdata  integral   32    'h0       
# -------------------------------------
# 
# Width = 32, size 16 bits
# driving the Data
# UVM_INFO ../tb/scoreboard.sv(99) @ 445: uvm_test_top.env_h.scoreboard_h [SCOREBOARD APB] apb_xtn data getting from tlm fifo 
#  --------------------------------------
# Name       Type       Size  Value     
# --------------------------------------
# apb_xtnh   apb_trans  -     @1325     
#   Prdata   integral   32    'h0       
#   Pwdata   integral   32    'h1b6c    
#   Paddr    integral   32    'h8c00039c
#   Pselx    integral   4     8         
#   Pwrite   integral   1     1         
#   Penable  integral   1     1         
# --------------------------------------
# 
# ADDRESS COMPARED SUCESSFULLY
# Haddr = 2348811164, Paddr = 2348811164
# DATA COMPARED SUCESSFULLY
# Hwdata = 7020, Pwdata = 7020
# UVM_INFO ../tb/scoreboard.sv(90) @ 445: uvm_test_top.env_h.scoreboard_h [SCOREBOARD AHB] src_xtn data getting from tlm fifo 
#  -------------------------------------
# Name      Type       Size  Value     
# -------------------------------------
# xtn       ahb_trans  -     @1313     
#   Haddr   integral   32    'h8c00039e
#   Hwdata  integral   32    'h1f6cb25 
#   Hwrite  integral   1     1         
#   Htrans  integral   2     3         
#   Hsize   integral   2     'd1       
#   Hburst  integral   3     'h1       
#   Hrdata  integral   32    'h0       
# -------------------------------------
# 
# Width = 32, size 16 bits
# driving the Data
# UVM_INFO ../tb/scoreboard.sv(99) @ 465: uvm_test_top.env_h.scoreboard_h [SCOREBOARD APB] apb_xtn data getting from tlm fifo 
#  --------------------------------------
# Name       Type       Size  Value     
# --------------------------------------
# apb_xtnh   apb_trans  -     @1333     
#   Prdata   integral   32    'h0       
#   Pwdata   integral   32    'h1f6     
#   Paddr    integral   32    'h8c00039e
#   Pselx    integral   4     8         
#   Pwrite   integral   1     1         
#   Penable  integral   1     1         
# --------------------------------------
# 
# ADDRESS COMPARED SUCESSFULLY
# Haddr = 2348811166, Paddr = 2348811166
# DATA COMPARED SUCESSFULLY
# Hwdata = 502, Pwdata = 502
# UVM_INFO ../tb/scoreboard.sv(90) @ 465: uvm_test_top.env_h.scoreboard_h [SCOREBOARD AHB] src_xtn data getting from tlm fifo 
#  -------------------------------------
# Name      Type       Size  Value     
# -------------------------------------
# xtn       ahb_trans  -     @1321     
#   Haddr   integral   32    'h8c0003a0
#   Hwdata  integral   32    'hd254ac11
#   Hwrite  integral   1     1         
#   Htrans  integral   2     3         
#   Hsize   integral   2     'd1       
#   Hburst  integral   3     'h1       
#   Hrdata  integral   32    'h0       
# -------------------------------------
# 
# Width = 32, size 16 bits
# driving the Data
# UVM_INFO ../tb/scoreboard.sv(99) @ 485: uvm_test_top.env_h.scoreboard_h [SCOREBOARD APB] apb_xtn data getting from tlm fifo 
#  --------------------------------------
# Name       Type       Size  Value     
# --------------------------------------
# apb_xtnh   apb_trans  -     @1341     
#   Prdata   integral   32    'h0       
#   Pwdata   integral   32    'hac11    
#   Paddr    integral   32    'h8c0003a0
#   Pselx    integral   4     10        
#   Pwrite   integral   1     1         
#   Penable  integral   1     1         
# --------------------------------------
# 
# ADDRESS COMPARED SUCESSFULLY
# Haddr = 2348811168, Paddr = 2348811168
# DATA COMPARED SUCESSFULLY
# Hwdata = 44049, Pwdata = 44049
# UVM_INFO ../tb/scoreboard.sv(90) @ 485: uvm_test_top.env_h.scoreboard_h [SCOREBOARD AHB] src_xtn data getting from tlm fifo 
#  -------------------------------------
# Name      Type       Size  Value     
# -------------------------------------
# xtn       ahb_trans  -     @1329     
#   Haddr   integral   32    'h8c0003a2
#   Hwdata  integral   32    'h255ff7e 
#   Hwrite  integral   1     1         
#   Htrans  integral   2     3         
#   Hsize   integral   2     'd1       
#   Hburst  integral   3     'h1       
#   Hrdata  integral   32    'h0       
# -------------------------------------
# 
# Width = 32, size 32 bits
# driving the Data
# UVM_INFO ../tb/scoreboard.sv(99) @ 505: uvm_test_top.env_h.scoreboard_h [SCOREBOARD APB] apb_xtn data getting from tlm fifo 
#  --------------------------------------
# Name       Type       Size  Value     
# --------------------------------------
# apb_xtnh   apb_trans  -     @1349     
#   Prdata   integral   32    'h0       
#   Pwdata   integral   32    'h255     
#   Paddr    integral   32    'h8c0003a2
#   Pselx    integral   4     10        
#   Pwrite   integral   1     1         
#   Penable  integral   1     1         
# --------------------------------------
# 
# ADDRESS COMPARED SUCESSFULLY
# Haddr = 2348811170, Paddr = 2348811170
# DATA COMPARED SUCESSFULLY
# Hwdata = 597, Pwdata = 597
# UVM_INFO ../tb/scoreboard.sv(90) @ 505: uvm_test_top.env_h.scoreboard_h [SCOREBOARD AHB] src_xtn data getting from tlm fifo 
#  -------------------------------------
# Name      Type       Size  Value     
# -------------------------------------
# xtn       ahb_trans  -     @1337     
#   Haddr   integral   32    'h840001f4
#   Hwdata  integral   32    'h8ff56a7b
#   Hwrite  integral   1     1         
#   Htrans  integral   2     2         
#   Hsize   integral   2     2         
#   Hburst  integral   3     'h1       
#   Hrdata  integral   32    'h0       
# -------------------------------------
# 
# Width = 32, size 32 bits
# driving the Data
# UVM_INFO ../tb/scoreboard.sv(99) @ 525: uvm_test_top.env_h.scoreboard_h [SCOREBOARD APB] apb_xtn data getting from tlm fifo 
#  --------------------------------------
# Name       Type       Size  Value     
# --------------------------------------
# apb_xtnh   apb_trans  -     @1357     
#   Prdata   integral   32    'h0       
#   Pwdata   integral   32    'h8ff56a7b
#   Paddr    integral   32    'h840001f4
#   Pselx    integral   4     10        
#   Pwrite   integral   1     1         
#   Penable  integral   1     1         
# --------------------------------------
# 
# ADDRESS COMPARED SUCESSFULLY
# Haddr = 2214593012, Paddr = 2214593012
# DATA COMPARED SUCESSFULLY
# Hwdata = 2415225467, Pwdata = 2415225467
# UVM_INFO ../tb/scoreboard.sv(90) @ 525: uvm_test_top.env_h.scoreboard_h [SCOREBOARD AHB] src_xtn data getting from tlm fifo 
#  -------------------------------------
# Name      Type       Size  Value     
# -------------------------------------
# xtn       ahb_trans  -     @1345     
#   Haddr   integral   32    'h840001f8
#   Hwdata  integral   32    'hef0a827f
#   Hwrite  integral   1     1         
#   Htrans  integral   2     3         
#   Hsize   integral   2     2         
#   Hburst  integral   3     'h1       
#   Hrdata  integral   32    'h0       
# -------------------------------------
# 
# Width = 32, size 32 bits
# driving the Data
# UVM_INFO ../tb/scoreboard.sv(99) @ 545: uvm_test_top.env_h.scoreboard_h [SCOREBOARD APB] apb_xtn data getting from tlm fifo 
#  --------------------------------------
# Name       Type       Size  Value     
# --------------------------------------
# apb_xtnh   apb_trans  -     @1365     
#   Prdata   integral   32    'h0       
#   Pwdata   integral   32    'hef0a827f
#   Paddr    integral   32    'h840001f8
#   Pselx    integral   4     10        
#   Pwrite   integral   1     1         
#   Penable  integral   1     1         
# --------------------------------------
# 
# ADDRESS COMPARED SUCESSFULLY
# Haddr = 2214593016, Paddr = 2214593016
# DATA COMPARED SUCESSFULLY
# Hwdata = 4010443391, Pwdata = 4010443391
# UVM_INFO ../tb/scoreboard.sv(90) @ 545: uvm_test_top.env_h.scoreboard_h [SCOREBOARD AHB] src_xtn data getting from tlm fifo 
#  -------------------------------------
# Name      Type       Size  Value     
# -------------------------------------
# xtn       ahb_trans  -     @1353     
#   Haddr   integral   32    'h840001fc
#   Hwdata  integral   32    'h8023b54c
#   Hwrite  integral   1     1         
#   Htrans  integral   2     3         
#   Hsize   integral   2     2         
#   Hburst  integral   3     'h1       
#   Hrdata  integral   32    'h0       
# -------------------------------------
# 
# Width = 32, size 32 bits
# driving the Data
# UVM_INFO ../tb/scoreboard.sv(99) @ 565: uvm_test_top.env_h.scoreboard_h [SCOREBOARD APB] apb_xtn data getting from tlm fifo 
#  --------------------------------------
# Name       Type       Size  Value     
# --------------------------------------
# apb_xtnh   apb_trans  -     @1373     
#   Prdata   integral   32    'h0       
#   Pwdata   integral   32    'h8023b54c
#   Paddr    integral   32    'h840001fc
#   Pselx    integral   4     10        
#   Pwrite   integral   1     1         
#   Penable  integral   1     1         
# --------------------------------------
# 
# ADDRESS COMPARED SUCESSFULLY
# Haddr = 2214593020, Paddr = 2214593020
# DATA COMPARED SUCESSFULLY
# Hwdata = 2149823820, Pwdata = 2149823820
# UVM_INFO ../tb/scoreboard.sv(90) @ 565: uvm_test_top.env_h.scoreboard_h [SCOREBOARD AHB] src_xtn data getting from tlm fifo 
#  -------------------------------------
# Name      Type       Size  Value     
# -------------------------------------
# xtn       ahb_trans  -     @1361     
#   Haddr   integral   32    'h84000200
#   Hwdata  integral   32    'h3c36cd0f
#   Hwrite  integral   1     1         
#   Htrans  integral   2     3         
#   Hsize   integral   2     2         
#   Hburst  integral   3     'h1       
#   Hrdata  integral   32    'h0       
# -------------------------------------
# 
# Width = 32, size 32 bits
# driving the Data
# UVM_INFO ../tb/scoreboard.sv(99) @ 585: uvm_test_top.env_h.scoreboard_h [SCOREBOARD APB] apb_xtn data getting from tlm fifo 
#  --------------------------------------
# Name       Type       Size  Value     
# --------------------------------------
# apb_xtnh   apb_trans  -     @1381     
#   Prdata   integral   32    'h0       
#   Pwdata   integral   32    'h3c36cd0f
#   Paddr    integral   32    'h84000200
#   Pselx    integral   4     10        
#   Pwrite   integral   1     1         
#   Penable  integral   1     1         
# --------------------------------------
# 
# ADDRESS COMPARED SUCESSFULLY
# Haddr = 2214593024, Paddr = 2214593024
# DATA COMPARED SUCESSFULLY
# Hwdata = 1010224399, Pwdata = 1010224399
# UVM_INFO ../tb/scoreboard.sv(90) @ 585: uvm_test_top.env_h.scoreboard_h [SCOREBOARD AHB] src_xtn data getting from tlm fifo 
#  -------------------------------------
# Name      Type       Size  Value     
# -------------------------------------
# xtn       ahb_trans  -     @1369     
#   Haddr   integral   32    'h84000204
#   Hwdata  integral   32    'h884ad3b8
#   Hwrite  integral   1     1         
#   Htrans  integral   2     3         
#   Hsize   integral   2     2         
#   Hburst  integral   3     'h1       
#   Hrdata  integral   32    'h0       
# -------------------------------------
# 
# Width = 32, size 32 bits
# driving the Data
# UVM_INFO ../tb/scoreboard.sv(99) @ 605: uvm_test_top.env_h.scoreboard_h [SCOREBOARD APB] apb_xtn data getting from tlm fifo 
#  --------------------------------------
# Name       Type       Size  Value     
# --------------------------------------
# apb_xtnh   apb_trans  -     @1389     
#   Prdata   integral   32    'h0       
#   Pwdata   integral   32    'h884ad3b8
#   Paddr    integral   32    'h84000204
#   Pselx    integral   4     10        
#   Pwrite   integral   1     1         
#   Penable  integral   1     1         
# --------------------------------------
# 
# ADDRESS COMPARED SUCESSFULLY
# Haddr = 2214593028, Paddr = 2214593028
# DATA COMPARED SUCESSFULLY
# Hwdata = 2286605240, Pwdata = 2286605240
# UVM_INFO ../tb/scoreboard.sv(90) @ 605: uvm_test_top.env_h.scoreboard_h [SCOREBOARD AHB] src_xtn data getting from tlm fifo 
#  -------------------------------------
# Name      Type       Size  Value     
# -------------------------------------
# xtn       ahb_trans  -     @1377     
#   Haddr   integral   32    'h84000208
#   Hwdata  integral   32    'h2c3ec516
#   Hwrite  integral   1     1         
#   Htrans  integral   2     3         
#   Hsize   integral   2     2         
#   Hburst  integral   3     'h1       
#   Hrdata  integral   32    'h0       
# -------------------------------------
# 
# Width = 32, size 32 bits
# driving the Data
# UVM_INFO ../tb/scoreboard.sv(99) @ 625: uvm_test_top.env_h.scoreboard_h [SCOREBOARD APB] apb_xtn data getting from tlm fifo 
#  --------------------------------------
# Name       Type       Size  Value     
# --------------------------------------
# apb_xtnh   apb_trans  -     @1397     
#   Prdata   integral   32    'h0       
#   Pwdata   integral   32    'h2c3ec516
#   Paddr    integral   32    'h84000208
#   Pselx    integral   4     10        
#   Pwrite   integral   1     1         
#   Penable  integral   1     1         
# --------------------------------------
# 
# ADDRESS COMPARED SUCESSFULLY
# Haddr = 2214593032, Paddr = 2214593032
# DATA COMPARED SUCESSFULLY
# Hwdata = 742311190, Pwdata = 742311190
# UVM_INFO ../tb/scoreboard.sv(90) @ 625: uvm_test_top.env_h.scoreboard_h [SCOREBOARD AHB] src_xtn data getting from tlm fifo 
#  -------------------------------------
# Name      Type       Size  Value     
# -------------------------------------
# xtn       ahb_trans  -     @1385     
#   Haddr   integral   32    'h8400020c
#   Hwdata  integral   32    'h517912f 
#   Hwrite  integral   1     1         
#   Htrans  integral   2     3         
#   Hsize   integral   2     2         
#   Hburst  integral   3     'h1       
#   Hrdata  integral   32    'h0       
# -------------------------------------
# 
# Width = 32, size 32 bits
# driving the Data
# UVM_INFO ../tb/scoreboard.sv(99) @ 645: uvm_test_top.env_h.scoreboard_h [SCOREBOARD APB] apb_xtn data getting from tlm fifo 
#  --------------------------------------
# Name       Type       Size  Value     
# --------------------------------------
# apb_xtnh   apb_trans  -     @1405     
#   Prdata   integral   32    'h0       
#   Pwdata   integral   32    'h517912f 
#   Paddr    integral   32    'h8400020c
#   Pselx    integral   4     10        
#   Pwrite   integral   1     1         
#   Penable  integral   1     1         
# --------------------------------------
# 
# ADDRESS COMPARED SUCESSFULLY
# Haddr = 2214593036, Paddr = 2214593036
# DATA COMPARED SUCESSFULLY
# Hwdata = 85430575, Pwdata = 85430575
# UVM_INFO ../tb/scoreboard.sv(90) @ 645: uvm_test_top.env_h.scoreboard_h [SCOREBOARD AHB] src_xtn data getting from tlm fifo 
#  -------------------------------------
# Name      Type       Size  Value     
# -------------------------------------
# xtn       ahb_trans  -     @1393     
#   Haddr   integral   32    'h84000210
#   Hwdata  integral   32    'hac8b09ac
#   Hwrite  integral   1     1         
#   Htrans  integral   2     3         
#   Hsize   integral   2     2         
#   Hburst  integral   3     'h1       
#   Hrdata  integral   32    'h0       
# -------------------------------------
# 
# Width = 32, size 32 bits
# driving the Data
# UVM_INFO ../tb/scoreboard.sv(99) @ 665: uvm_test_top.env_h.scoreboard_h [SCOREBOARD APB] apb_xtn data getting from tlm fifo 
#  --------------------------------------
# Name       Type       Size  Value     
# --------------------------------------
# apb_xtnh   apb_trans  -     @1413     
#   Prdata   integral   32    'h0       
#   Pwdata   integral   32    'hac8b09ac
#   Paddr    integral   32    'h84000210
#   Pselx    integral   4     10        
#   Pwrite   integral   1     1         
#   Penable  integral   1     1         
# --------------------------------------
# 
# ADDRESS COMPARED SUCESSFULLY
# Haddr = 2214593040, Paddr = 2214593040
# DATA COMPARED SUCESSFULLY
# Hwdata = 2894793132, Pwdata = 2894793132
# UVM_INFO ../tb/scoreboard.sv(90) @ 665: uvm_test_top.env_h.scoreboard_h [SCOREBOARD AHB] src_xtn data getting from tlm fifo 
#  -------------------------------------
# Name      Type       Size  Value     
# -------------------------------------
# xtn       ahb_trans  -     @1401     
#   Haddr   integral   32    'h84000214
#   Hwdata  integral   32    'h2f20c2ce
#   Hwrite  integral   1     1         
#   Htrans  integral   2     3         
#   Hsize   integral   2     2         
#   Hburst  integral   3     'h1       
#   Hrdata  integral   32    'h0       
# -------------------------------------
# 
# Width = 32, size 32 bits
# driving the Data
# UVM_INFO ../tb/scoreboard.sv(99) @ 685: uvm_test_top.env_h.scoreboard_h [SCOREBOARD APB] apb_xtn data getting from tlm fifo 
#  --------------------------------------
# Name       Type       Size  Value     
# --------------------------------------
# apb_xtnh   apb_trans  -     @1421     
#   Prdata   integral   32    'h0       
#   Pwdata   integral   32    'h2f20c2ce
#   Paddr    integral   32    'h84000214
#   Pselx    integral   4     10        
#   Pwrite   integral   1     1         
#   Penable  integral   1     1         
# --------------------------------------
# 
# ADDRESS COMPARED SUCESSFULLY
# Haddr = 2214593044, Paddr = 2214593044
# DATA COMPARED SUCESSFULLY
# Hwdata = 790676174, Pwdata = 790676174
# UVM_INFO ../tb/scoreboard.sv(90) @ 685: uvm_test_top.env_h.scoreboard_h [SCOREBOARD AHB] src_xtn data getting from tlm fifo 
#  -------------------------------------
# Name      Type       Size  Value     
# -------------------------------------
# xtn       ahb_trans  -     @1409     
#   Haddr   integral   32    'h84000218
#   Hwdata  integral   32    'hfb6cc3a8
#   Hwrite  integral   1     1         
#   Htrans  integral   2     3         
#   Hsize   integral   2     2         
#   Hburst  integral   3     'h1       
#   Hrdata  integral   32    'h0       
# -------------------------------------
# 
# Width = 32, size 32 bits
# driving the Data
# UVM_INFO ../tb/scoreboard.sv(99) @ 705: uvm_test_top.env_h.scoreboard_h [SCOREBOARD APB] apb_xtn data getting from tlm fifo 
#  --------------------------------------
# Name       Type       Size  Value     
# --------------------------------------
# apb_xtnh   apb_trans  -     @1429     
#   Prdata   integral   32    'h0       
#   Pwdata   integral   32    'hfb6cc3a8
#   Paddr    integral   32    'h84000218
#   Pselx    integral   4     10        
#   Pwrite   integral   1     1         
#   Penable  integral   1     1         
# --------------------------------------
# 
# ADDRESS COMPARED SUCESSFULLY
# Haddr = 2214593048, Paddr = 2214593048
# DATA COMPARED SUCESSFULLY
# Hwdata = 4218209192, Pwdata = 4218209192
# UVM_INFO ../tb/scoreboard.sv(90) @ 705: uvm_test_top.env_h.scoreboard_h [SCOREBOARD AHB] src_xtn data getting from tlm fifo 
#  -------------------------------------
# Name      Type       Size  Value     
# -------------------------------------
# xtn       ahb_trans  -     @1417     
#   Haddr   integral   32    'h8400021c
#   Hwdata  integral   32    'h8b7071fb
#   Hwrite  integral   1     1         
#   Htrans  integral   2     3         
#   Hsize   integral   2     2         
#   Hburst  integral   3     'h1       
#   Hrdata  integral   32    'h0       
# -------------------------------------
# 
# Width = 32, size 32 bits
# driving the Data
# UVM_INFO ../tb/scoreboard.sv(99) @ 725: uvm_test_top.env_h.scoreboard_h [SCOREBOARD APB] apb_xtn data getting from tlm fifo 
#  --------------------------------------
# Name       Type       Size  Value     
# --------------------------------------
# apb_xtnh   apb_trans  -     @1437     
#   Prdata   integral   32    'h0       
#   Pwdata   integral   32    'h8b7071fb
#   Paddr    integral   32    'h8400021c
#   Pselx    integral   4     10        
#   Pwrite   integral   1     1         
#   Penable  integral   1     1         
# --------------------------------------
# 
# ADDRESS COMPARED SUCESSFULLY
# Haddr = 2214593052, Paddr = 2214593052
# DATA COMPARED SUCESSFULLY
# Hwdata = 2339402235, Pwdata = 2339402235
# UVM_INFO ../tb/scoreboard.sv(90) @ 725: uvm_test_top.env_h.scoreboard_h [SCOREBOARD AHB] src_xtn data getting from tlm fifo 
#  -------------------------------------
# Name      Type       Size  Value     
# -------------------------------------
# xtn       ahb_trans  -     @1425     
#   Haddr   integral   32    'h84000220
#   Hwdata  integral   32    'hc94dc377
#   Hwrite  integral   1     1         
#   Htrans  integral   2     3         
#   Hsize   integral   2     2         
#   Hburst  integral   3     'h1       
#   Hrdata  integral   32    'h0       
# -------------------------------------
# 
# Width = 32, size 32 bits
# driving the Data
# UVM_INFO ../tb/scoreboard.sv(99) @ 745: uvm_test_top.env_h.scoreboard_h [SCOREBOARD APB] apb_xtn data getting from tlm fifo 
#  --------------------------------------
# Name       Type       Size  Value     
# --------------------------------------
# apb_xtnh   apb_trans  -     @1445     
#   Prdata   integral   32    'h0       
#   Pwdata   integral   32    'hc94dc377
#   Paddr    integral   32    'h84000220
#   Pselx    integral   4     10        
#   Pwrite   integral   1     1         
#   Penable  integral   1     1         
# --------------------------------------
# 
# ADDRESS COMPARED SUCESSFULLY
# Haddr = 2214593056, Paddr = 2214593056
# DATA COMPARED SUCESSFULLY
# Hwdata = 3377316727, Pwdata = 3377316727
# UVM_INFO ../tb/scoreboard.sv(90) @ 745: uvm_test_top.env_h.scoreboard_h [SCOREBOARD AHB] src_xtn data getting from tlm fifo 
#  -------------------------------------
# Name      Type       Size  Value     
# -------------------------------------
# xtn       ahb_trans  -     @1433     
#   Haddr   integral   32    'h84000224
#   Hwdata  integral   32    'h91ef508f
#   Hwrite  integral   1     1         
#   Htrans  integral   2     3         
#   Hsize   integral   2     2         
#   Hburst  integral   3     'h1       
#   Hrdata  integral   32    'h0       
# -------------------------------------
# 
# Width = 32, size 32 bits
# driving the Data
# UVM_INFO ../tb/scoreboard.sv(99) @ 765: uvm_test_top.env_h.scoreboard_h [SCOREBOARD APB] apb_xtn data getting from tlm fifo 
#  --------------------------------------
# Name       Type       Size  Value     
# --------------------------------------
# apb_xtnh   apb_trans  -     @1453     
#   Prdata   integral   32    'h0       
#   Pwdata   integral   32    'h91ef508f
#   Paddr    integral   32    'h84000224
#   Pselx    integral   4     10        
#   Pwrite   integral   1     1         
#   Penable  integral   1     1         
# --------------------------------------
# 
# ADDRESS COMPARED SUCESSFULLY
# Haddr = 2214593060, Paddr = 2214593060
# DATA COMPARED SUCESSFULLY
# Hwdata = 2448380047, Pwdata = 2448380047
# UVM_INFO ../tb/scoreboard.sv(90) @ 765: uvm_test_top.env_h.scoreboard_h [SCOREBOARD AHB] src_xtn data getting from tlm fifo 
#  -------------------------------------
# Name      Type       Size  Value     
# -------------------------------------
# xtn       ahb_trans  -     @1441     
#   Haddr   integral   32    'h84000228
#   Hwdata  integral   32    'h42f83d2f
#   Hwrite  integral   1     1         
#   Htrans  integral   2     3         
#   Hsize   integral   2     2         
#   Hburst  integral   3     'h1       
#   Hrdata  integral   32    'h0       
# -------------------------------------
# 
# Width = 32, size 32 bits
# driving the Data
# UVM_INFO ../tb/scoreboard.sv(99) @ 785: uvm_test_top.env_h.scoreboard_h [SCOREBOARD APB] apb_xtn data getting from tlm fifo 
#  --------------------------------------
# Name       Type       Size  Value     
# --------------------------------------
# apb_xtnh   apb_trans  -     @1461     
#   Prdata   integral   32    'h0       
#   Pwdata   integral   32    'h42f83d2f
#   Paddr    integral   32    'h84000228
#   Pselx    integral   4     10        
#   Pwrite   integral   1     1         
#   Penable  integral   1     1         
# --------------------------------------
# 
# ADDRESS COMPARED SUCESSFULLY
# Haddr = 2214593064, Paddr = 2214593064
# DATA COMPARED SUCESSFULLY
# Hwdata = 1123564847, Pwdata = 1123564847
# UVM_INFO ../tb/scoreboard.sv(90) @ 785: uvm_test_top.env_h.scoreboard_h [SCOREBOARD AHB] src_xtn data getting from tlm fifo 
#  -------------------------------------
# Name      Type       Size  Value     
# -------------------------------------
# xtn       ahb_trans  -     @1449     
#   Haddr   integral   32    'h8400022c
#   Hwdata  integral   32    'h25897731
#   Hwrite  integral   1     1         
#   Htrans  integral   2     3         
#   Hsize   integral   2     2         
#   Hburst  integral   3     'h1       
#   Hrdata  integral   32    'h0       
# -------------------------------------
# 
# Width = 32, size 32 bits
# driving the Data
# UVM_INFO ../tb/scoreboard.sv(99) @ 805: uvm_test_top.env_h.scoreboard_h [SCOREBOARD APB] apb_xtn data getting from tlm fifo 
#  --------------------------------------
# Name       Type       Size  Value     
# --------------------------------------
# apb_xtnh   apb_trans  -     @1469     
#   Prdata   integral   32    'h0       
#   Pwdata   integral   32    'h25897731
#   Paddr    integral   32    'h8400022c
#   Pselx    integral   4     10        
#   Pwrite   integral   1     1         
#   Penable  integral   1     1         
# --------------------------------------
# 
# ADDRESS COMPARED SUCESSFULLY
# Haddr = 2214593068, Paddr = 2214593068
# DATA COMPARED SUCESSFULLY
# Hwdata = 629765937, Pwdata = 629765937
# UVM_INFO ../tb/scoreboard.sv(90) @ 805: uvm_test_top.env_h.scoreboard_h [SCOREBOARD AHB] src_xtn data getting from tlm fifo 
#  -------------------------------------
# Name      Type       Size  Value     
# -------------------------------------
# xtn       ahb_trans  -     @1457     
#   Haddr   integral   32    'h84000230
#   Hwdata  integral   32    'h7cf256b3
#   Hwrite  integral   1     1         
#   Htrans  integral   2     3         
#   Hsize   integral   2     2         
#   Hburst  integral   3     'h1       
#   Hrdata  integral   32    'h0       
# -------------------------------------
# 
# Width = 32, size 32 bits
# driving the Data
# UVM_INFO ../tb/scoreboard.sv(99) @ 825: uvm_test_top.env_h.scoreboard_h [SCOREBOARD APB] apb_xtn data getting from tlm fifo 
#  --------------------------------------
# Name       Type       Size  Value     
# --------------------------------------
# apb_xtnh   apb_trans  -     @1477     
#   Prdata   integral   32    'h0       
#   Pwdata   integral   32    'h7cf256b3
#   Paddr    integral   32    'h84000230
#   Pselx    integral   4     10        
#   Pwrite   integral   1     1         
#   Penable  integral   1     1         
# --------------------------------------
# 
# ADDRESS COMPARED SUCESSFULLY
# Haddr = 2214593072, Paddr = 2214593072
# DATA COMPARED SUCESSFULLY
# Hwdata = 2096256691, Pwdata = 2096256691
# UVM_INFO ../tb/scoreboard.sv(90) @ 825: uvm_test_top.env_h.scoreboard_h [SCOREBOARD AHB] src_xtn data getting from tlm fifo 
#  -------------------------------------
# Name      Type       Size  Value     
# -------------------------------------
# xtn       ahb_trans  -     @1465     
#   Haddr   integral   32    'h84000234
#   Hwdata  integral   32    'hb4dc209c
#   Hwrite  integral   1     1         
#   Htrans  integral   2     3         
#   Hsize   integral   2     2         
#   Hburst  integral   3     'h1       
#   Hrdata  integral   32    'h0       
# -------------------------------------
# 
# Width = 32, size 32 bits
# driving the Data
# UVM_INFO ../tb/scoreboard.sv(99) @ 845: uvm_test_top.env_h.scoreboard_h [SCOREBOARD APB] apb_xtn data getting from tlm fifo 
#  --------------------------------------
# Name       Type       Size  Value     
# --------------------------------------
# apb_xtnh   apb_trans  -     @1485     
#   Prdata   integral   32    'h0       
#   Pwdata   integral   32    'hb4dc209c
#   Paddr    integral   32    'h84000234
#   Pselx    integral   4     10        
#   Pwrite   integral   1     1         
#   Penable  integral   1     1         
# --------------------------------------
# 
# ADDRESS COMPARED SUCESSFULLY
# Haddr = 2214593076, Paddr = 2214593076
# DATA COMPARED SUCESSFULLY
# Hwdata = 3034325148, Pwdata = 3034325148
# UVM_INFO ../tb/scoreboard.sv(90) @ 845: uvm_test_top.env_h.scoreboard_h [SCOREBOARD AHB] src_xtn data getting from tlm fifo 
#  -------------------------------------
# Name      Type       Size  Value     
# -------------------------------------
# xtn       ahb_trans  -     @1473     
#   Haddr   integral   32    'h84000238
#   Hwdata  integral   32    'he5b85ddf
#   Hwrite  integral   1     1         
#   Htrans  integral   2     3         
#   Hsize   integral   2     2         
#   Hburst  integral   3     'h1       
#   Hrdata  integral   32    'h0       
# -------------------------------------
# 
# Width = 32, size 8 bits
#                  855BYTE0_endian1
#                  855BYTE1_endian1
# driving the Data
# UVM_INFO ../tb/scoreboard.sv(99) @ 865: uvm_test_top.env_h.scoreboard_h [SCOREBOARD APB] apb_xtn data getting from tlm fifo 
#  --------------------------------------
# Name       Type       Size  Value     
# --------------------------------------
# apb_xtnh   apb_trans  -     @1493     
#   Prdata   integral   32    'h0       
#   Pwdata   integral   32    'he5b85ddf
#   Paddr    integral   32    'h84000238
#   Pselx    integral   4     10        
#   Pwrite   integral   1     1         
#   Penable  integral   1     1         
# --------------------------------------
# 
# ADDRESS COMPARED SUCESSFULLY
# Haddr = 2214593080, Paddr = 2214593080
# DATA COMPARED SUCESSFULLY
# Hwdata = 3854065119, Pwdata = 3854065119
# UVM_INFO ../tb/scoreboard.sv(90) @ 865: uvm_test_top.env_h.scoreboard_h [SCOREBOARD AHB] src_xtn data getting from tlm fifo 
#  -------------------------------------
# Name      Type       Size  Value     
# -------------------------------------
# xtn       ahb_trans  -     @1481     
#   Haddr   integral   32    'h8c000255
#   Hwdata  integral   32    'h9bdfb6d3
#   Hwrite  integral   1     1         
#   Htrans  integral   2     2         
#   Hsize   integral   2     'd0       
#   Hburst  integral   3     'h1       
#   Hrdata  integral   32    'h0       
# -------------------------------------
# 
# Width = 32, size 8 bits
#                  875BYTE1_endian1
#                  875BYTE2_endian1
# driving the Data
# UVM_INFO ../tb/scoreboard.sv(99) @ 885: uvm_test_top.env_h.scoreboard_h [SCOREBOARD APB] apb_xtn data getting from tlm fifo 
#  --------------------------------------
# Name       Type       Size  Value     
# --------------------------------------
# apb_xtnh   apb_trans  -     @1501     
#   Prdata   integral   32    'h0       
#   Pwdata   integral   32    'hb6      
#   Paddr    integral   32    'h8c000255
#   Pselx    integral   4     10        
#   Pwrite   integral   1     1         
#   Penable  integral   1     1         
# --------------------------------------
# 
# ADDRESS COMPARED SUCESSFULLY
# Haddr = 2348810837, Paddr = 2348810837
# DATA COMPARED SUCESSFULLY
# Hwdata = 182, Pwdata = 182
# UVM_INFO ../tb/scoreboard.sv(90) @ 885: uvm_test_top.env_h.scoreboard_h [SCOREBOARD AHB] src_xtn data getting from tlm fifo 
#  -------------------------------------
# Name      Type       Size  Value     
# -------------------------------------
# xtn       ahb_trans  -     @1489     
#   Haddr   integral   32    'h8c000256
#   Hwdata  integral   32    'h4ec41611
#   Hwrite  integral   1     1         
#   Htrans  integral   2     3         
#   Hsize   integral   2     'd0       
#   Hburst  integral   3     'h1       
#   Hrdata  integral   32    'h0       
# -------------------------------------
# 
# Width = 32, size 8 bits
#                  895BYTE2_endian1
#                  895BYTE3_endian1
# driving the Data
# UVM_INFO ../tb/scoreboard.sv(99) @ 905: uvm_test_top.env_h.scoreboard_h [SCOREBOARD APB] apb_xtn data getting from tlm fifo 
#  --------------------------------------
# Name       Type       Size  Value     
# --------------------------------------
# apb_xtnh   apb_trans  -     @1509     
#   Prdata   integral   32    'h0       
#   Pwdata   integral   32    'hc4      
#   Paddr    integral   32    'h8c000256
#   Pselx    integral   4     10        
#   Pwrite   integral   1     1         
#   Penable  integral   1     1         
# --------------------------------------
# 
# ADDRESS COMPARED SUCESSFULLY
# Haddr = 2348810838, Paddr = 2348810838
# DATA COMPARED SUCESSFULLY
# Hwdata = 196, Pwdata = 196
# UVM_INFO ../tb/scoreboard.sv(90) @ 905: uvm_test_top.env_h.scoreboard_h [SCOREBOARD AHB] src_xtn data getting from tlm fifo 
#  -------------------------------------
# Name      Type       Size  Value     
# -------------------------------------
# xtn       ahb_trans  -     @1497     
#   Haddr   integral   32    'h8c000257
#   Hwdata  integral   32    'hf9b18633
#   Hwrite  integral   1     1         
#   Htrans  integral   2     3         
#   Hsize   integral   2     'd0       
#   Hburst  integral   3     'h1       
#   Hrdata  integral   32    'h0       
# -------------------------------------
# 
# Width = 32, size 8 bits
#                  915BYTE3_endian1
#                  915BYTE0_endian1
# driving the Data
# UVM_INFO ../tb/scoreboard.sv(99) @ 925: uvm_test_top.env_h.scoreboard_h [SCOREBOARD APB] apb_xtn data getting from tlm fifo 
#  --------------------------------------
# Name       Type       Size  Value     
# --------------------------------------
# apb_xtnh   apb_trans  -     @1517     
#   Prdata   integral   32    'h0       
#   Pwdata   integral   32    'hf9      
#   Paddr    integral   32    'h8c000257
#   Pselx    integral   4     10        
#   Pwrite   integral   1     1         
#   Penable  integral   1     1         
# --------------------------------------
# 
# ADDRESS COMPARED SUCESSFULLY
# Haddr = 2348810839, Paddr = 2348810839
# DATA COMPARED SUCESSFULLY
# Hwdata = 249, Pwdata = 249
# UVM_INFO ../tb/scoreboard.sv(90) @ 925: uvm_test_top.env_h.scoreboard_h [SCOREBOARD AHB] src_xtn data getting from tlm fifo 
#  -------------------------------------
# Name      Type       Size  Value     
# -------------------------------------
# xtn       ahb_trans  -     @1505     
#   Haddr   integral   32    'h8c000258
#   Hwdata  integral   32    'hddf0301d
#   Hwrite  integral   1     1         
#   Htrans  integral   2     3         
#   Hsize   integral   2     'd0       
#   Hburst  integral   3     'h1       
#   Hrdata  integral   32    'h0       
# -------------------------------------
# 
# Width = 32, size 8 bits
#                  935BYTE0_endian1
#                  935BYTE1_endian1
# driving the Data
# UVM_INFO ../tb/scoreboard.sv(99) @ 945: uvm_test_top.env_h.scoreboard_h [SCOREBOARD APB] apb_xtn data getting from tlm fifo 
#  --------------------------------------
# Name       Type       Size  Value     
# --------------------------------------
# apb_xtnh   apb_trans  -     @1525     
#   Prdata   integral   32    'h0       
#   Pwdata   integral   32    'h1d      
#   Paddr    integral   32    'h8c000258
#   Pselx    integral   4     10        
#   Pwrite   integral   1     1         
#   Penable  integral   1     1         
# --------------------------------------
# 
# ADDRESS COMPARED SUCESSFULLY
# Haddr = 2348810840, Paddr = 2348810840
# DATA COMPARED SUCESSFULLY
# Hwdata = 29, Pwdata = 29
# UVM_INFO ../tb/scoreboard.sv(90) @ 945: uvm_test_top.env_h.scoreboard_h [SCOREBOARD AHB] src_xtn data getting from tlm fifo 
#  -------------------------------------
# Name      Type       Size  Value     
# -------------------------------------
# xtn       ahb_trans  -     @1513     
#   Haddr   integral   32    'h8c000259
#   Hwdata  integral   32    'h15aedcd3
#   Hwrite  integral   1     1         
#   Htrans  integral   2     3         
#   Hsize   integral   2     'd0       
#   Hburst  integral   3     'h1       
#   Hrdata  integral   32    'h0       
# -------------------------------------
# 
# Width = 32, size 8 bits
#                  955BYTE1_endian1
#                  955BYTE2_endian1
# driving the Data
# UVM_INFO ../tb/scoreboard.sv(99) @ 965: uvm_test_top.env_h.scoreboard_h [SCOREBOARD APB] apb_xtn data getting from tlm fifo 
#  --------------------------------------
# Name       Type       Size  Value     
# --------------------------------------
# apb_xtnh   apb_trans  -     @1533     
#   Prdata   integral   32    'h0       
#   Pwdata   integral   32    'hdc      
#   Paddr    integral   32    'h8c000259
#   Pselx    integral   4     10        
#   Pwrite   integral   1     1         
#   Penable  integral   1     1         
# --------------------------------------
# 
# ADDRESS COMPARED SUCESSFULLY
# Haddr = 2348810841, Paddr = 2348810841
# DATA COMPARED SUCESSFULLY
# Hwdata = 220, Pwdata = 220
# UVM_INFO ../tb/scoreboard.sv(90) @ 965: uvm_test_top.env_h.scoreboard_h [SCOREBOARD AHB] src_xtn data getting from tlm fifo 
#  -------------------------------------
# Name      Type       Size  Value     
# -------------------------------------
# xtn       ahb_trans  -     @1521     
#   Haddr   integral   32    'h8c00025a
#   Hwdata  integral   32    'hc778414a
#   Hwrite  integral   1     1         
#   Htrans  integral   2     3         
#   Hsize   integral   2     'd0       
#   Hburst  integral   3     'h1       
#   Hrdata  integral   32    'h0       
# -------------------------------------
# 
# Width = 32, size 8 bits
#                  975BYTE2_endian1
#                  975BYTE3_endian1
# driving the Data
# UVM_INFO ../tb/scoreboard.sv(99) @ 985: uvm_test_top.env_h.scoreboard_h [SCOREBOARD APB] apb_xtn data getting from tlm fifo 
#  --------------------------------------
# Name       Type       Size  Value     
# --------------------------------------
# apb_xtnh   apb_trans  -     @1541     
#   Prdata   integral   32    'h0       
#   Pwdata   integral   32    'h78      
#   Paddr    integral   32    'h8c00025a
#   Pselx    integral   4     10        
#   Pwrite   integral   1     1         
#   Penable  integral   1     1         
# --------------------------------------
# 
# ADDRESS COMPARED SUCESSFULLY
# Haddr = 2348810842, Paddr = 2348810842
# DATA COMPARED SUCESSFULLY
# Hwdata = 120, Pwdata = 120
# UVM_INFO ../tb/scoreboard.sv(90) @ 985: uvm_test_top.env_h.scoreboard_h [SCOREBOARD AHB] src_xtn data getting from tlm fifo 
#  -------------------------------------
# Name      Type       Size  Value     
# -------------------------------------
# xtn       ahb_trans  -     @1529     
#   Haddr   integral   32    'h8c00025b
#   Hwdata  integral   32    'h818aee4d
#   Hwrite  integral   1     1         
#   Htrans  integral   2     3         
#   Hsize   integral   2     'd0       
#   Hburst  integral   3     'h1       
#   Hrdata  integral   32    'h0       
# -------------------------------------
# 
# Width = 32, size 8 bits
#                  995BYTE3_endian1
#                  995BYTE0_endian1
# driving the Data
# UVM_INFO ../tb/scoreboard.sv(99) @ 1005: uvm_test_top.env_h.scoreboard_h [SCOREBOARD APB] apb_xtn data getting from tlm fifo 
#  --------------------------------------
# Name       Type       Size  Value     
# --------------------------------------
# apb_xtnh   apb_trans  -     @1549     
#   Prdata   integral   32    'h0       
#   Pwdata   integral   32    'h81      
#   Paddr    integral   32    'h8c00025b
#   Pselx    integral   4     10        
#   Pwrite   integral   1     1         
#   Penable  integral   1     1         
# --------------------------------------
# 
# ADDRESS COMPARED SUCESSFULLY
# Haddr = 2348810843, Paddr = 2348810843
# DATA COMPARED SUCESSFULLY
# Hwdata = 129, Pwdata = 129
# UVM_INFO ../tb/scoreboard.sv(90) @ 1005: uvm_test_top.env_h.scoreboard_h [SCOREBOARD AHB] src_xtn data getting from tlm fifo 
#  -------------------------------------
# Name      Type       Size  Value     
# -------------------------------------
# xtn       ahb_trans  -     @1537     
#   Haddr   integral   32    'h8c00025c
#   Hwdata  integral   32    'hfd94f8f 
#   Hwrite  integral   1     1         
#   Htrans  integral   2     3         
#   Hsize   integral   2     'd0       
#   Hburst  integral   3     'h1       
#   Hrdata  integral   32    'h0       
# -------------------------------------
# 
# Width = 32, size 8 bits
#                 1015BYTE0_endian1
#                 1015BYTE1_endian1
# driving the Data
# UVM_INFO ../tb/scoreboard.sv(99) @ 1025: uvm_test_top.env_h.scoreboard_h [SCOREBOARD APB] apb_xtn data getting from tlm fifo 
#  --------------------------------------
# Name       Type       Size  Value     
# --------------------------------------
# apb_xtnh   apb_trans  -     @1557     
#   Prdata   integral   32    'h0       
#   Pwdata   integral   32    'h8f      
#   Paddr    integral   32    'h8c00025c
#   Pselx    integral   4     10        
#   Pwrite   integral   1     1         
#   Penable  integral   1     1         
# --------------------------------------
# 
# ADDRESS COMPARED SUCESSFULLY
# Haddr = 2348810844, Paddr = 2348810844
# DATA COMPARED SUCESSFULLY
# Hwdata = 143, Pwdata = 143
# UVM_INFO ../tb/scoreboard.sv(90) @ 1025: uvm_test_top.env_h.scoreboard_h [SCOREBOARD AHB] src_xtn data getting from tlm fifo 
#  -------------------------------------
# Name      Type       Size  Value     
# -------------------------------------
# xtn       ahb_trans  -     @1545     
#   Haddr   integral   32    'h8c00025d
#   Hwdata  integral   32    'h6e55afa9
#   Hwrite  integral   1     1         
#   Htrans  integral   2     3         
#   Hsize   integral   2     'd0       
#   Hburst  integral   3     'h1       
#   Hrdata  integral   32    'h0       
# -------------------------------------
# 
# Width = 32, size 8 bits
#                 1035BYTE1_endian1
#                 1035BYTE2_endian1
# driving the Data
# UVM_INFO ../tb/scoreboard.sv(99) @ 1045: uvm_test_top.env_h.scoreboard_h [SCOREBOARD APB] apb_xtn data getting from tlm fifo 
#  --------------------------------------
# Name       Type       Size  Value     
# --------------------------------------
# apb_xtnh   apb_trans  -     @1565     
#   Prdata   integral   32    'h0       
#   Pwdata   integral   32    'haf      
#   Paddr    integral   32    'h8c00025d
#   Pselx    integral   4     10        
#   Pwrite   integral   1     1         
#   Penable  integral   1     1         
# --------------------------------------
# 
# ADDRESS COMPARED SUCESSFULLY
# Haddr = 2348810845, Paddr = 2348810845
# DATA COMPARED SUCESSFULLY
# Hwdata = 175, Pwdata = 175
# UVM_INFO ../tb/scoreboard.sv(90) @ 1045: uvm_test_top.env_h.scoreboard_h [SCOREBOARD AHB] src_xtn data getting from tlm fifo 
#  -------------------------------------
# Name      Type       Size  Value     
# -------------------------------------
# xtn       ahb_trans  -     @1553     
#   Haddr   integral   32    'h8c00025e
#   Hwdata  integral   32    'h7f1aa6f4
#   Hwrite  integral   1     1         
#   Htrans  integral   2     3         
#   Hsize   integral   2     'd0       
#   Hburst  integral   3     'h1       
#   Hrdata  integral   32    'h0       
# -------------------------------------
# 
# Width = 32, size 8 bits
#                 1055BYTE2_endian1
#                 1055BYTE3_endian1
# driving the Data
# UVM_INFO ../tb/scoreboard.sv(99) @ 1065: uvm_test_top.env_h.scoreboard_h [SCOREBOARD APB] apb_xtn data getting from tlm fifo 
#  --------------------------------------
# Name       Type       Size  Value     
# --------------------------------------
# apb_xtnh   apb_trans  -     @1573     
#   Prdata   integral   32    'h0       
#   Pwdata   integral   32    'h1a      
#   Paddr    integral   32    'h8c00025e
#   Pselx    integral   4     10        
#   Pwrite   integral   1     1         
#   Penable  integral   1     1         
# --------------------------------------
# 
# ADDRESS COMPARED SUCESSFULLY
# Haddr = 2348810846, Paddr = 2348810846
# DATA COMPARED SUCESSFULLY
# Hwdata = 26, Pwdata = 26
# UVM_INFO ../tb/scoreboard.sv(90) @ 1065: uvm_test_top.env_h.scoreboard_h [SCOREBOARD AHB] src_xtn data getting from tlm fifo 
#  -------------------------------------
# Name      Type       Size  Value     
# -------------------------------------
# xtn       ahb_trans  -     @1561     
#   Haddr   integral   32    'h8c00025f
#   Hwdata  integral   32    'h9b0bd101
#   Hwrite  integral   1     1         
#   Htrans  integral   2     3         
#   Hsize   integral   2     'd0       
#   Hburst  integral   3     'h1       
#   Hrdata  integral   32    'h0       
# -------------------------------------
# 
# Width = 32, size 8 bits
#                 1075BYTE3_endian1
#                 1075BYTE0_endian1
# driving the Data
# UVM_INFO ../tb/scoreboard.sv(99) @ 1085: uvm_test_top.env_h.scoreboard_h [SCOREBOARD APB] apb_xtn data getting from tlm fifo 
#  --------------------------------------
# Name       Type       Size  Value     
# --------------------------------------
# apb_xtnh   apb_trans  -     @1581     
#   Prdata   integral   32    'h0       
#   Pwdata   integral   32    'h9b      
#   Paddr    integral   32    'h8c00025f
#   Pselx    integral   4     10        
#   Pwrite   integral   1     1         
#   Penable  integral   1     1         
# --------------------------------------
# 
# ADDRESS COMPARED SUCESSFULLY
# Haddr = 2348810847, Paddr = 2348810847
# DATA COMPARED SUCESSFULLY
# Hwdata = 155, Pwdata = 155
# UVM_INFO ../tb/scoreboard.sv(90) @ 1085: uvm_test_top.env_h.scoreboard_h [SCOREBOARD AHB] src_xtn data getting from tlm fifo 
#  -------------------------------------
# Name      Type       Size  Value     
# -------------------------------------
# xtn       ahb_trans  -     @1569     
#   Haddr   integral   32    'h8c000260
#   Hwdata  integral   32    'hc13517db
#   Hwrite  integral   1     1         
#   Htrans  integral   2     3         
#   Hsize   integral   2     'd0       
#   Hburst  integral   3     'h1       
#   Hrdata  integral   32    'h0       
# -------------------------------------
# 
# Width = 32, size 8 bits
#                 1095BYTE0_endian1
#                 1095BYTE1_endian1
# driving the Data
# UVM_INFO ../tb/scoreboard.sv(99) @ 1105: uvm_test_top.env_h.scoreboard_h [SCOREBOARD APB] apb_xtn data getting from tlm fifo 
#  --------------------------------------
# Name       Type       Size  Value     
# --------------------------------------
# apb_xtnh   apb_trans  -     @1589     
#   Prdata   integral   32    'h0       
#   Pwdata   integral   32    'hdb      
#   Paddr    integral   32    'h8c000260
#   Pselx    integral   4     10        
#   Pwrite   integral   1     1         
#   Penable  integral   1     1         
# --------------------------------------
# 
# ADDRESS COMPARED SUCESSFULLY
# Haddr = 2348810848, Paddr = 2348810848
# DATA COMPARED SUCESSFULLY
# Hwdata = 219, Pwdata = 219
# UVM_INFO ../tb/scoreboard.sv(90) @ 1105: uvm_test_top.env_h.scoreboard_h [SCOREBOARD AHB] src_xtn data getting from tlm fifo 
#  -------------------------------------
# Name      Type       Size  Value     
# -------------------------------------
# xtn       ahb_trans  -     @1577     
#   Haddr   integral   32    'h8c000261
#   Hwdata  integral   32    'ha836f1ef
#   Hwrite  integral   1     1         
#   Htrans  integral   2     3         
#   Hsize   integral   2     'd0       
#   Hburst  integral   3     'h1       
#   Hrdata  integral   32    'h0       
# -------------------------------------
# 
# Width = 32, size 8 bits
#                 1115BYTE1_endian1
#                 1115BYTE2_endian1
# driving the Data
# UVM_INFO ../tb/scoreboard.sv(99) @ 1125: uvm_test_top.env_h.scoreboard_h [SCOREBOARD APB] apb_xtn data getting from tlm fifo 
#  --------------------------------------
# Name       Type       Size  Value     
# --------------------------------------
# apb_xtnh   apb_trans  -     @1597     
#   Prdata   integral   32    'h0       
#   Pwdata   integral   32    'hf1      
#   Paddr    integral   32    'h8c000261
#   Pselx    integral   4     10        
#   Pwrite   integral   1     1         
#   Penable  integral   1     1         
# --------------------------------------
# 
# ADDRESS COMPARED SUCESSFULLY
# Haddr = 2348810849, Paddr = 2348810849
# DATA COMPARED SUCESSFULLY
# Hwdata = 241, Pwdata = 241
# UVM_INFO ../tb/scoreboard.sv(90) @ 1125: uvm_test_top.env_h.scoreboard_h [SCOREBOARD AHB] src_xtn data getting from tlm fifo 
#  -------------------------------------
# Name      Type       Size  Value     
# -------------------------------------
# xtn       ahb_trans  -     @1585     
#   Haddr   integral   32    'h8c000262
#   Hwdata  integral   32    'ha6cb27cd
#   Hwrite  integral   1     1         
#   Htrans  integral   2     3         
#   Hsize   integral   2     'd0       
#   Hburst  integral   3     'h1       
#   Hrdata  integral   32    'h0       
# -------------------------------------
# 
# Width = 32, size 8 bits
#                 1135BYTE2_endian1
#                 1135BYTE3_endian1
# driving the Data
# UVM_INFO ../tb/scoreboard.sv(99) @ 1145: uvm_test_top.env_h.scoreboard_h [SCOREBOARD APB] apb_xtn data getting from tlm fifo 
#  --------------------------------------
# Name       Type       Size  Value     
# --------------------------------------
# apb_xtnh   apb_trans  -     @1605     
#   Prdata   integral   32    'h0       
#   Pwdata   integral   32    'hcb      
#   Paddr    integral   32    'h8c000262
#   Pselx    integral   4     10        
#   Pwrite   integral   1     1         
#   Penable  integral   1     1         
# --------------------------------------
# 
# ADDRESS COMPARED SUCESSFULLY
# Haddr = 2348810850, Paddr = 2348810850
# DATA COMPARED SUCESSFULLY
# Hwdata = 203, Pwdata = 203
# UVM_INFO ../tb/scoreboard.sv(90) @ 1145: uvm_test_top.env_h.scoreboard_h [SCOREBOARD AHB] src_xtn data getting from tlm fifo 
#  -------------------------------------
# Name      Type       Size  Value     
# -------------------------------------
# xtn       ahb_trans  -     @1593     
#   Haddr   integral   32    'h8c000263
#   Hwdata  integral   32    'h2a148577
#   Hwrite  integral   1     1         
#   Htrans  integral   2     3         
#   Hsize   integral   2     'd0       
#   Hburst  integral   3     'h1       
#   Hrdata  integral   32    'h0       
# -------------------------------------
# 
# Width = 32, size 8 bits
#                 1155BYTE3_endian1
#                 1155BYTE0_endian1
# driving the Data
# UVM_INFO ../tb/scoreboard.sv(99) @ 1165: uvm_test_top.env_h.scoreboard_h [SCOREBOARD APB] apb_xtn data getting from tlm fifo 
#  --------------------------------------
# Name       Type       Size  Value     
# --------------------------------------
# apb_xtnh   apb_trans  -     @1613     
#   Prdata   integral   32    'h0       
#   Pwdata   integral   32    'h2a      
#   Paddr    integral   32    'h8c000263
#   Pselx    integral   4     10        
#   Pwrite   integral   1     1         
#   Penable  integral   1     1         
# --------------------------------------
# 
# ADDRESS COMPARED SUCESSFULLY
# Haddr = 2348810851, Paddr = 2348810851
# DATA COMPARED SUCESSFULLY
# Hwdata = 42, Pwdata = 42
# UVM_INFO ../tb/scoreboard.sv(90) @ 1165: uvm_test_top.env_h.scoreboard_h [SCOREBOARD AHB] src_xtn data getting from tlm fifo 
#  -------------------------------------
# Name      Type       Size  Value     
# -------------------------------------
# xtn       ahb_trans  -     @1601     
#   Haddr   integral   32    'h8c000264
#   Hwdata  integral   32    'hebba6307
#   Hwrite  integral   1     1         
#   Htrans  integral   2     3         
#   Hsize   integral   2     'd0       
#   Hburst  integral   3     'h1       
#   Hrdata  integral   32    'h0       
# -------------------------------------
# 
# Width = 32, size 8 bits
#                 1175BYTE0_endian1
#                 1175BYTE1_endian1
# driving the Data
# UVM_INFO ../tb/scoreboard.sv(99) @ 1185: uvm_test_top.env_h.scoreboard_h [SCOREBOARD APB] apb_xtn data getting from tlm fifo 
#  --------------------------------------
# Name       Type       Size  Value     
# --------------------------------------
# apb_xtnh   apb_trans  -     @1621     
#   Prdata   integral   32    'h0       
#   Pwdata   integral   32    'h7       
#   Paddr    integral   32    'h8c000264
#   Pselx    integral   4     10        
#   Pwrite   integral   1     1         
#   Penable  integral   1     1         
# --------------------------------------
# 
# ADDRESS COMPARED SUCESSFULLY
# Haddr = 2348810852, Paddr = 2348810852
# DATA COMPARED SUCESSFULLY
# Hwdata = 7, Pwdata = 7
# UVM_INFO ../tb/scoreboard.sv(90) @ 1185: uvm_test_top.env_h.scoreboard_h [SCOREBOARD AHB] src_xtn data getting from tlm fifo 
#  -------------------------------------
# Name      Type       Size  Value     
# -------------------------------------
# xtn       ahb_trans  -     @1609     
#   Haddr   integral   32    'h8c000265
#   Hwdata  integral   32    'hf6475c71
#   Hwrite  integral   1     1         
#   Htrans  integral   2     3         
#   Hsize   integral   2     'd0       
#   Hburst  integral   3     'h1       
#   Hrdata  integral   32    'h0       
# -------------------------------------
# 
# Width = 32, size 8 bits
#                 1195BYTE1_endian1
#                 1195BYTE2_endian1
# driving the Data
# UVM_INFO ../tb/scoreboard.sv(99) @ 1205: uvm_test_top.env_h.scoreboard_h [SCOREBOARD APB] apb_xtn data getting from tlm fifo 
#  --------------------------------------
# Name       Type       Size  Value     
# --------------------------------------
# apb_xtnh   apb_trans  -     @1629     
#   Prdata   integral   32    'h0       
#   Pwdata   integral   32    'h5c      
#   Paddr    integral   32    'h8c000265
#   Pselx    integral   4     10        
#   Pwrite   integral   1     1         
#   Penable  integral   1     1         
# --------------------------------------
# 
# ADDRESS COMPARED SUCESSFULLY
# Haddr = 2348810853, Paddr = 2348810853
# DATA COMPARED SUCESSFULLY
# Hwdata = 92, Pwdata = 92
# UVM_INFO ../tb/scoreboard.sv(90) @ 1205: uvm_test_top.env_h.scoreboard_h [SCOREBOARD AHB] src_xtn data getting from tlm fifo 
#  -------------------------------------
# Name      Type       Size  Value     
# -------------------------------------
# xtn       ahb_trans  -     @1617     
#   Haddr   integral   32    'h8c000266
#   Hwdata  integral   32    'hf064975c
#   Hwrite  integral   1     1         
#   Htrans  integral   2     3         
#   Hsize   integral   2     'd0       
#   Hburst  integral   3     'h1       
#   Hrdata  integral   32    'h0       
# -------------------------------------
# 
# Width = 32, size 8 bits
#                 1215BYTE2_endian1
#                 1215BYTE3_endian1
# driving the Data
# UVM_INFO ../tb/scoreboard.sv(99) @ 1225: uvm_test_top.env_h.scoreboard_h [SCOREBOARD APB] apb_xtn data getting from tlm fifo 
#  --------------------------------------
# Name       Type       Size  Value     
# --------------------------------------
# apb_xtnh   apb_trans  -     @1637     
#   Prdata   integral   32    'h0       
#   Pwdata   integral   32    'h64      
#   Paddr    integral   32    'h8c000266
#   Pselx    integral   4     10        
#   Pwrite   integral   1     1         
#   Penable  integral   1     1         
# --------------------------------------
# 
# ADDRESS COMPARED SUCESSFULLY
# Haddr = 2348810854, Paddr = 2348810854
# DATA COMPARED SUCESSFULLY
# Hwdata = 100, Pwdata = 100
# UVM_INFO ../tb/scoreboard.sv(90) @ 1225: uvm_test_top.env_h.scoreboard_h [SCOREBOARD AHB] src_xtn data getting from tlm fifo 
#  -------------------------------------
# Name      Type       Size  Value     
# -------------------------------------
# xtn       ahb_trans  -     @1625     
#   Haddr   integral   32    'h8c000267
#   Hwdata  integral   32    'h3f16b5d7
#   Hwrite  integral   1     1         
#   Htrans  integral   2     3         
#   Hsize   integral   2     'd0       
#   Hburst  integral   3     'h1       
#   Hrdata  integral   32    'h0       
# -------------------------------------
# 
# Width = 32, size 8 bits
#                 1235BYTE3_endian1
#                 1235BYTE0_endian1
# driving the Data
# UVM_INFO ../tb/scoreboard.sv(99) @ 1245: uvm_test_top.env_h.scoreboard_h [SCOREBOARD APB] apb_xtn data getting from tlm fifo 
#  --------------------------------------
# Name       Type       Size  Value     
# --------------------------------------
# apb_xtnh   apb_trans  -     @1645     
#   Prdata   integral   32    'h0       
#   Pwdata   integral   32    'h3f      
#   Paddr    integral   32    'h8c000267
#   Pselx    integral   4     10        
#   Pwrite   integral   1     1         
#   Penable  integral   1     1         
# --------------------------------------
# 
# ADDRESS COMPARED SUCESSFULLY
# Haddr = 2348810855, Paddr = 2348810855
# DATA COMPARED SUCESSFULLY
# Hwdata = 63, Pwdata = 63
# UVM_INFO ../tb/scoreboard.sv(90) @ 1245: uvm_test_top.env_h.scoreboard_h [SCOREBOARD AHB] src_xtn data getting from tlm fifo 
#  -------------------------------------
# Name      Type       Size  Value     
# -------------------------------------
# xtn       ahb_trans  -     @1633     
#   Haddr   integral   32    'h8c000268
#   Hwdata  integral   32    'h70e42cfd
#   Hwrite  integral   1     1         
#   Htrans  integral   2     3         
#   Hsize   integral   2     'd0       
#   Hburst  integral   3     'h1       
#   Hrdata  integral   32    'h0       
# -------------------------------------
# 
# Width = 32, size 8 bits
#                 1255BYTE0_endian1
#                 1255BYTE1_endian1
# driving the Data
# UVM_INFO ../tb/scoreboard.sv(99) @ 1265: uvm_test_top.env_h.scoreboard_h [SCOREBOARD APB] apb_xtn data getting from tlm fifo 
#  --------------------------------------
# Name       Type       Size  Value     
# --------------------------------------
# apb_xtnh   apb_trans  -     @1653     
#   Prdata   integral   32    'h0       
#   Pwdata   integral   32    'hfd      
#   Paddr    integral   32    'h8c000268
#   Pselx    integral   4     10        
#   Pwrite   integral   1     1         
#   Penable  integral   1     1         
# --------------------------------------
# 
# ADDRESS COMPARED SUCESSFULLY
# Haddr = 2348810856, Paddr = 2348810856
# DATA COMPARED SUCESSFULLY
# Hwdata = 253, Pwdata = 253
# UVM_INFO ../tb/scoreboard.sv(90) @ 1265: uvm_test_top.env_h.scoreboard_h [SCOREBOARD AHB] src_xtn data getting from tlm fifo 
#  -------------------------------------
# Name      Type       Size  Value     
# -------------------------------------
# xtn       ahb_trans  -     @1641     
#   Haddr   integral   32    'h8c000269
#   Hwdata  integral   32    'h97e8dee2
#   Hwrite  integral   1     1         
#   Htrans  integral   2     3         
#   Hsize   integral   2     'd0       
#   Hburst  integral   3     'h1       
#   Hrdata  integral   32    'h0       
# -------------------------------------
# 
# Width = 32, size 8 bits
#                 1275BYTE1_endian1
#                 1275BYTE2_endian1
# driving the Data
# UVM_INFO ../tb/scoreboard.sv(99) @ 1285: uvm_test_top.env_h.scoreboard_h [SCOREBOARD APB] apb_xtn data getting from tlm fifo 
#  --------------------------------------
# Name       Type       Size  Value     
# --------------------------------------
# apb_xtnh   apb_trans  -     @1661     
#   Prdata   integral   32    'h0       
#   Pwdata   integral   32    'hde      
#   Paddr    integral   32    'h8c000269
#   Pselx    integral   4     10        
#   Pwrite   integral   1     1         
#   Penable  integral   1     1         
# --------------------------------------
# 
# ADDRESS COMPARED SUCESSFULLY
# Haddr = 2348810857, Paddr = 2348810857
# DATA COMPARED SUCESSFULLY
# Hwdata = 222, Pwdata = 222
# UVM_INFO ../tb/scoreboard.sv(90) @ 1285: uvm_test_top.env_h.scoreboard_h [SCOREBOARD AHB] src_xtn data getting from tlm fifo 
#  -------------------------------------
# Name      Type       Size  Value     
# -------------------------------------
# xtn       ahb_trans  -     @1649     
#   Haddr   integral   32    'h8c00026a
#   Hwdata  integral   32    'hbf3dfbc5
#   Hwrite  integral   1     1         
#   Htrans  integral   2     3         
#   Hsize   integral   2     'd0       
#   Hburst  integral   3     'h1       
#   Hrdata  integral   32    'h0       
# -------------------------------------
# 
# Width = 32, size 8 bits
#                 1295BYTE2_endian1
#                 1295BYTE3_endian1
# driving the Data
# UVM_INFO ../tb/scoreboard.sv(99) @ 1305: uvm_test_top.env_h.scoreboard_h [SCOREBOARD APB] apb_xtn data getting from tlm fifo 
#  --------------------------------------
# Name       Type       Size  Value     
# --------------------------------------
# apb_xtnh   apb_trans  -     @1669     
#   Prdata   integral   32    'h0       
#   Pwdata   integral   32    'h3d      
#   Paddr    integral   32    'h8c00026a
#   Pselx    integral   4     10        
#   Pwrite   integral   1     1         
#   Penable  integral   1     1         
# --------------------------------------
# 
# ADDRESS COMPARED SUCESSFULLY
# Haddr = 2348810858, Paddr = 2348810858
# DATA COMPARED SUCESSFULLY
# Hwdata = 61, Pwdata = 61
# UVM_INFO ../tb/scoreboard.sv(90) @ 1305: uvm_test_top.env_h.scoreboard_h [SCOREBOARD AHB] src_xtn data getting from tlm fifo 
#  -------------------------------------
# Name      Type       Size  Value     
# -------------------------------------
# xtn       ahb_trans  -     @1657     
#   Haddr   integral   32    'h8c00026b
#   Hwdata  integral   32    'h77df85fb
#   Hwrite  integral   1     1         
#   Htrans  integral   2     3         
#   Hsize   integral   2     'd0       
#   Hburst  integral   3     'h1       
#   Hrdata  integral   32    'h0       
# -------------------------------------
# 
# Width = 32, size 8 bits
#                 1315BYTE3_endian1
# driving the Data
# UVM_INFO ../tb/scoreboard.sv(99) @ 1325: uvm_test_top.env_h.scoreboard_h [SCOREBOARD APB] apb_xtn data getting from tlm fifo 
#  --------------------------------------
# Name       Type       Size  Value     
# --------------------------------------
# apb_xtnh   apb_trans  -     @1677     
#   Prdata   integral   32    'h0       
#   Pwdata   integral   32    'h77      
#   Paddr    integral   32    'h8c00026b
#   Pselx    integral   4     10        
#   Pwrite   integral   1     1         
#   Penable  integral   1     1         
# --------------------------------------
# 
# ADDRESS COMPARED SUCESSFULLY
# Haddr = 2348810859, Paddr = 2348810859
# DATA COMPARED SUCESSFULLY
# Hwdata = 119, Pwdata = 119
# UVM_INFO ../tb/scoreboard.sv(90) @ 1325: uvm_test_top.env_h.scoreboard_h [SCOREBOARD AHB] src_xtn data getting from tlm fifo 
#  -------------------------------------
# Name      Type       Size  Value     
# -------------------------------------
# xtn       ahb_trans  -     @1665     
#   Haddr   integral   32    'h84000297
#   Hwdata  integral   32    'he46d9f73
#   Hwrite  integral   1     1         
#   Htrans  integral   2     2         
#   Hsize   integral   2     'd0       
#   Hburst  integral   3     'h1       
#   Hrdata  integral   32    'h0       
# -------------------------------------
# 
# Width = 32, size 8 bits
#                 1335BYTE3_endian1
#                 1335BYTE0_endian1
# driving the Data
# UVM_INFO ../tb/scoreboard.sv(99) @ 1345: uvm_test_top.env_h.scoreboard_h [SCOREBOARD APB] apb_xtn data getting from tlm fifo 
#  --------------------------------------
# Name       Type       Size  Value     
# --------------------------------------
# apb_xtnh   apb_trans  -     @1685     
#   Prdata   integral   32    'h0       
#   Pwdata   integral   32    'he4      
#   Paddr    integral   32    'h84000297
#   Pselx    integral   4     10        
#   Pwrite   integral   1     1         
#   Penable  integral   1     1         
# --------------------------------------
# 
# ADDRESS COMPARED SUCESSFULLY
# Haddr = 2214593175, Paddr = 2214593175
# DATA COMPARED SUCESSFULLY
# Hwdata = 228, Pwdata = 228
# UVM_INFO ../tb/scoreboard.sv(90) @ 1345: uvm_test_top.env_h.scoreboard_h [SCOREBOARD AHB] src_xtn data getting from tlm fifo 
#  -------------------------------------
# Name      Type       Size  Value     
# -------------------------------------
# xtn       ahb_trans  -     @1673     
#   Haddr   integral   32    'h84000298
#   Hwdata  integral   32    'h263f533 
#   Hwrite  integral   1     1         
#   Htrans  integral   2     3         
#   Hsize   integral   2     'd0       
#   Hburst  integral   3     'h1       
#   Hrdata  integral   32    'h0       
# -------------------------------------
# 
# Width = 32, size 8 bits
#                 1355BYTE0_endian1
#                 1355BYTE1_endian1
# driving the Data
# UVM_INFO ../tb/scoreboard.sv(99) @ 1365: uvm_test_top.env_h.scoreboard_h [SCOREBOARD APB] apb_xtn data getting from tlm fifo 
#  --------------------------------------
# Name       Type       Size  Value     
# --------------------------------------
# apb_xtnh   apb_trans  -     @1693     
#   Prdata   integral   32    'h0       
#   Pwdata   integral   32    'h33      
#   Paddr    integral   32    'h84000298
#   Pselx    integral   4     10        
#   Pwrite   integral   1     1         
#   Penable  integral   1     1         
# --------------------------------------
# 
# ADDRESS COMPARED SUCESSFULLY
# Haddr = 2214593176, Paddr = 2214593176
# DATA COMPARED SUCESSFULLY
# Hwdata = 51, Pwdata = 51
# UVM_INFO ../tb/scoreboard.sv(90) @ 1365: uvm_test_top.env_h.scoreboard_h [SCOREBOARD AHB] src_xtn data getting from tlm fifo 
#  -------------------------------------
# Name      Type       Size  Value     
# -------------------------------------
# xtn       ahb_trans  -     @1681     
#   Haddr   integral   32    'h84000299
#   Hwdata  integral   32    'h446b8c55
#   Hwrite  integral   1     1         
#   Htrans  integral   2     3         
#   Hsize   integral   2     'd0       
#   Hburst  integral   3     'h1       
#   Hrdata  integral   32    'h0       
# -------------------------------------
# 
# Width = 32, size 8 bits
#                 1375BYTE1_endian1
#                 1375BYTE2_endian1
# driving the Data
# UVM_INFO ../tb/scoreboard.sv(99) @ 1385: uvm_test_top.env_h.scoreboard_h [SCOREBOARD APB] apb_xtn data getting from tlm fifo 
#  --------------------------------------
# Name       Type       Size  Value     
# --------------------------------------
